(1646670986.981062) vcan0 000001D0#453B1A1352573122
(1646670986.981339) vcan0 0000014A#0D62394A06576358
(1646670986.981442) vcan0 000001A3#0000000101000000
(1646670986.999295) vcan0 000001D0#622B36544E3F5D3C
(1646670986.999742) vcan0 0000014A#6041183E4B203226
(1646670986.999861) vcan0 000001A3#0000000101000000
(1646670987.013079) vcan0 000001D0#5F2C111F63400407
(1646670987.013203) vcan0 0000014A#0746190C5329591E
(1646670987.013323) vcan0 000001A3#0000000101000000
(1646670987.029021) vcan0 000001D0#0C0A29223C314946
(1646670987.029333) vcan0 0000014A#2A233C3E0C595D2E
(1646670987.029466) vcan0 000001A3#0000000101000000
(1646670987.046596) vcan0 000001D0#5A472924175C1F05
(1646670987.046788) vcan0 0000014A#560B021562535E1C
(1646670987.046865) vcan0 000001A3#0000000101000000
(1646670987.060971) vcan0 000001D0#230A2E055C354556
(1646670987.061248) vcan0 0000014A#383F0E08475C2F58
(1646670987.061407) vcan0 000001A3#0000000101000000
(1646670987.078695) vcan0 000001D0#632C2A530419344C
(1646670987.079146) vcan0 0000014A#145A13574A4B304C
(1646670987.079258) vcan0 000001A3#0000000101000000
(1646670987.092923) vcan0 000001D0#1B043E5E2E194227
(1646670987.093295) vcan0 0000014A#145F0E5463320853
(1646670987.093487) vcan0 000001A3#0000000101000000
(1646670987.109035) vcan0 000001D0#175211250A5B4E47
(1646670987.109407) vcan0 0000014A#24580507514F0926
(1646670987.109678) vcan0 000001A3#0000000101000000
(1646670987.125429) vcan0 000001D0#3F573D0E3C243917
(1646670987.126060) vcan0 0000014A#0B613B0D26055863
(1646670987.126241) vcan0 000001A3#0000000101000000
(1646670987.140947) vcan0 000001D0#403542620A4B0136
(1646670987.141297) vcan0 0000014A#3D1C4D1B10361762
(1646670987.141512) vcan0 000001A3#0000000101000000
(1646670987.158693) vcan0 000001D0#36352E3F1F62494F
(1646670987.159157) vcan0 0000014A#2B444827340F1250
(1646670987.159273) vcan0 000001A3#0000000101000000
(1646670987.172947) vcan0 000001D0#48214D29610C1527
(1646670987.173208) vcan0 0000014A#3C1F05403E59491D
(1646670987.173321) vcan0 000001A3#0000000101000000
(1646670987.173526) vcan0 000001A3#5D231C4B3E330739
(1646670987.189293) vcan0 000001D0#22553A484E1C1B57
(1646670987.189599) vcan0 0000014A#390F0E1535505C44
(1646670987.191992) vcan0 000001A3#0000000101000000
(1646670987.205190) vcan0 000001D0#3512103613320857
(1646670987.205469) vcan0 0000014A#0F3E013905231B09
(1646670987.205573) vcan0 000001A3#0000000101000000
(1646670987.220905) vcan0 000001D0#4A524F59441E2C5A
(1646670987.221221) vcan0 0000014A#424A284131512B48
(1646670987.221629) vcan0 000001A3#0000000101000000
(1646670987.238698) vcan0 000001D0#143A1951284F623D
(1646670987.238894) vcan0 0000014A#0D5051095A381942
(1646670987.239068) vcan0 000001A3#0000000101000000
(1646670987.253251) vcan0 000001D0#371002074E4C1C47
(1646670987.253692) vcan0 0000014A#32280C0752595456
(1646670987.253785) vcan0 000001A3#0000000101000000
(1646670987.268988) vcan0 000001D0#105B3E444F17201C
(1646670987.271567) vcan0 0000014A#224913464C3D0C06
(1646670987.271662) vcan0 000001A3#0000000101000000
(1646670987.284974) vcan0 000001D0#16314C30474B3F22
(1646670987.285318) vcan0 0000014A#595C5649050C0D63
(1646670987.285583) vcan0 000001A3#0000000101000000
(1646670987.301035) vcan0 000001D0#4B1A0E074A28523F
(1646670987.301472) vcan0 0000014A#1B5F265D6141072A
(1646670987.301745) vcan0 000001A3#0000000101000000
(1646670987.317060) vcan0 000001D0#0836595A0F1D5118
(1646670987.317348) vcan0 0000014A#5B612B554D175935
(1646670987.317517) vcan0 000001A3#0000000101000000
(1646670987.332914) vcan0 000001D0#511C201E27301642
(1646670987.333221) vcan0 0000014A#3013602F235D010E
(1646670987.333427) vcan0 000001A3#0000000101000000
(1646670987.350572) vcan0 000001D0#5C0B2C61371C5455
(1646670987.350730) vcan0 0000014A#4C390B0A3E29260F
(1646670987.350790) vcan0 000001A3#0000000101000000
(1646670987.363900) vcan0 000001D0#6263273B55602F44
(1646670987.364160) vcan0 0000014A#5D2A443C11310D24
(1646670987.364374) vcan0 000001A3#0000000101000000
(1646670987.379946) vcan0 000001D0#302D213F1942235B
(1646670987.382457) vcan0 0000014A#1F0B2C14601D054B
(1646670987.382668) vcan0 000001A3#0000000101000000
(1646670987.396006) vcan0 000001D0#51101201054F2E19
(1646670987.396384) vcan0 0000014A#504E455F6212331D
(1646670987.396530) vcan0 000001A3#0000000101000000
(1646670987.411926) vcan0 000001D0#53070D3436470B19
(1646670987.412143) vcan0 0000014A#0233433D160A0B4F
(1646670987.412325) vcan0 000001A3#0000000101000000
(1646670987.429663) vcan0 000001D0#4B3A575659262741
(1646670987.429884) vcan0 0000014A#28073C0E1B034808
(1646670987.429965) vcan0 000001A3#0000000101000000
(1646670987.443888) vcan0 000001D0#43452B5C54214717
(1646670987.444088) vcan0 0000014A#052F08285339311F
(1646670987.444144) vcan0 000001A3#0000000101000000
(1646670987.462026) vcan0 000001D0#02561D615F402133
(1646670987.462423) vcan0 0000014A#57154D1E41255A1A
(1646670987.462610) vcan0 000001A3#0000000101000000
(1646670987.475919) vcan0 000001D0#422111552C60401E
(1646670987.476058) vcan0 0000014A#3304211A0F0A0723
(1646670987.476112) vcan0 000001A3#0000000101000000
(1646670987.492076) vcan0 000001D0#604D283A135E2E27
(1646670987.492559) vcan0 0000014A#0C63240701355C5E
(1646670987.492869) vcan0 000001A3#0000000101000000
(1646670987.508096) vcan0 000001D0#54283A482E145F5E
(1646670987.508409) vcan0 0000014A#4133481935096207
(1646670987.508595) vcan0 000001A3#0000000101000000
(1646670987.523928) vcan0 000001D0#310C45394F542221
(1646670987.524055) vcan0 0000014A#4E3E33325C610C2E
(1646670987.524104) vcan0 000001A3#0000000101000000
(1646670987.541744) vcan0 000001D0#6056071843203A41
(1646670987.542072) vcan0 0000014A#5D1F395862052E63
(1646670987.542241) vcan0 000001A3#0000000101000000
(1646670987.555997) vcan0 000001D0#1117450C1D1A2518
(1646670987.556169) vcan0 0000014A#5B1711374A4E0E49
(1646670987.556440) vcan0 000001A3#0000000101000000
(1646670987.574267) vcan0 000001D0#1E30474608013519
(1646670987.574724) vcan0 0000014A#044D16322A2C6214
(1646670987.575183) vcan0 000001A3#0000000101000000
(1646670987.588056) vcan0 000001D0#0A2E46593A3B2213
(1646670987.588602) vcan0 0000014A#2D1A26405E382729
(1646670987.588853) vcan0 000001A3#0000000101000000
(1646670987.603947) vcan0 000001D0#021D2A48400C5949
(1646670987.604088) vcan0 0000014A#1839444B41552135
(1646670987.604140) vcan0 000001A3#0000000101000000
(1646670987.622821) vcan0 000001D0#1A024A463E170453
(1646670987.623264) vcan0 0000014A#4E2B0851135A060A
(1646670987.623480) vcan0 000001A3#0000000101000000
(1646670987.636953) vcan0 000001D0#2D11590B0F0C3109
(1646670987.637238) vcan0 0000014A#3557013E3306183C
(1646670987.637380) vcan0 000001A3#0000000101000000
(1646670987.655072) vcan0 000001D0#27592C1521423A48
(1646670987.655407) vcan0 0000014A#39305D5B46520B38
(1646670987.655551) vcan0 000001A3#0000000101000000
(1646670987.669017) vcan0 000001D0#1501134703273D2A
(1646670987.669387) vcan0 0000014A#1728055C144F221F
(1646670987.669610) vcan0 000001A3#0000000101000000
(1646670987.685218) vcan0 000001D0#3D0111282E525D2C
(1646670987.685758) vcan0 0000014A#2E123425402B5021
(1646670987.686016) vcan0 000001A3#0000000101000000
(1646670987.701059) vcan0 000001D0#274E0B302A2D3A38
(1646670987.701532) vcan0 0000014A#28591656542B5004
(1646670987.701616) vcan0 000001A3#0000000101000000
(1646670987.716999) vcan0 000001D0#5D1740120E296147
(1646670987.717262) vcan0 000001D0#2F0F0758632C3121
(1646670987.717289) vcan0 0000014A#1529353C223E5047
(1646670987.717436) vcan0 000001A3#0000000101000000
(1646670987.734646) vcan0 000001D0#194D513B5B1D2F01
(1646670987.734870) vcan0 0000014A#2348030B60101C14
(1646670987.734979) vcan0 000001A3#0000000101000000
(1646670987.748964) vcan0 000001D0#0D14294E12222024
(1646670987.749236) vcan0 0000014A#0C2E4E2F245C4502
(1646670987.749341) vcan0 000001A3#0000000101000000
(1646670987.766956) vcan0 000001D0#040A383D5A4A1236
(1646670987.767107) vcan0 0000014A#612C0D2542451F37
(1646670987.767154) vcan0 000001A3#0000000101000000
(1646670987.781220) vcan0 000001D0#63503D0648452054
(1646670987.781495) vcan0 0000014A#0631524634182F51
(1646670987.781625) vcan0 000001A3#0000000101000000
(1646670987.796958) vcan0 000001D0#632F051E605E101F
(1646670987.797176) vcan0 0000014A#5F012F561F295A22
(1646670987.797250) vcan0 000001A3#0000000101000000
(1646670987.814810) vcan0 000001D0#4C4A1D1E19200B33
(1646670987.814981) vcan0 0000014A#390F4C3548204A59
(1646670987.815190) vcan0 000001A3#0000000101000000
(1646670987.828974) vcan0 000001D0#511B52044C132D4B
(1646670987.829254) vcan0 0000014A#3F29285F5D223E44
(1646670987.829391) vcan0 000001A3#0000000101000000
(1646670987.846618) vcan0 000001D0#61144E1D3226161F
(1646670987.846740) vcan0 0000014A#4326382D0A2A394D
(1646670987.846789) vcan0 000001A3#0000000101000000
(1646670987.860941) vcan0 000001D0#3B5E2F63380A364C
(1646670987.861079) vcan0 0000014A#332C382843043F2E
(1646670987.861292) vcan0 000001A3#0000000101000000
(1646670987.877010) vcan0 000001D0#3E244C50155B0639
(1646670987.878943) vcan0 0000014A#124022052A243334
(1646670987.879158) vcan0 000001A3#0000000101000000
(1646670987.893058) vcan0 000001D0#2754194608572B39
(1646670987.893326) vcan0 0000014A#4E010F2703413D39
(1646670987.893500) vcan0 000001A3#0000000101000000
(1646670987.908929) vcan0 000001D0#49474D3760254F0A
(1646670987.909169) vcan0 0000014A#015A1912410C1E3E
(1646670987.909278) vcan0 000001A3#0000000101000000
(1646670987.926698) vcan0 000001D0#03470113245D2219
(1646670987.926839) vcan0 0000014A#4333321920075359
(1646670987.926969) vcan0 000001A3#0000000101000000
(1646670987.940940) vcan0 000001D0#50010B4F231D3F3A
(1646670987.941187) vcan0 0000014A#361F15101643504F
(1646670987.941290) vcan0 000001A3#0000000101000000
(1646670987.959438) vcan0 000001D0#5D2E5554591B0662
(1646670987.959934) vcan0 0000014A#241B202C2A39595F
(1646670987.960005) vcan0 000001A3#0000000101000000
(1646670987.972931) vcan0 000001D0#34445D571B415B0E
(1646670987.973202) vcan0 0000014A#3F224144453A5E23
(1646670987.973323) vcan0 000001A3#0000000101000000
(1646670987.989321) vcan0 000001D0#561F5E0B47283D38
(1646670987.989910) vcan0 0000014A#2D4057083B413145
(1646670987.992750) vcan0 000001A3#0000000101000000
(1646670988.005208) vcan0 000001D0#413C383110273A1C
(1646670988.005416) vcan0 0000014A#63532B2A05155225
(1646670988.005545) vcan0 000001A3#0000000101000000
(1646670988.020959) vcan0 000001D0#04080B5C0A100544
(1646670988.021207) vcan0 0000014A#50222643205E1744
(1646670988.021317) vcan0 000001A3#0000000101000000
(1646670988.038769) vcan0 000001D0#5027300746623526
(1646670988.038915) vcan0 0000014A#461D0E3A62552022
(1646670988.039044) vcan0 000001A3#0000000101000000
(1646670988.052975) vcan0 000001D0#583F5C493B34170C
(1646670988.053315) vcan0 0000014A#341A0F184E3F4B3A
(1646670988.053464) vcan0 000001A3#0000000101000000
(1646670988.069082) vcan0 000001D0#08210F2241134214
(1646670988.071397) vcan0 0000014A#475651075B490F1F
(1646670988.071532) vcan0 000001A3#0000000101000000
(1646670988.085049) vcan0 000001D0#5F0848094A320F4E
(1646670988.085377) vcan0 0000014A#52471F0229200401
(1646670988.085549) vcan0 000001A3#0000000101000000
(1646670988.100930) vcan0 000001D0#465E141F3C014F27
(1646670988.101054) vcan0 0000014A#0B581740322C1F39
(1646670988.101168) vcan0 000001A3#0000000101000000
(1646670988.118531) vcan0 000001D0#4757071819060B3A
(1646670988.118923) vcan0 0000014A#2F59146351204029
(1646670988.119120) vcan0 000001A3#0000000101000000
(1646670988.132958) vcan0 000001D0#56261D2314011150
(1646670988.133198) vcan0 0000014A#4E455B0548015E1D
(1646670988.133292) vcan0 000001A3#0000000101000000
(1646670988.151276) vcan0 000001D0#430E5E3D20051326
(1646670988.151750) vcan0 0000014A#60011A2148370F10
(1646670988.151824) vcan0 000001A3#0000000101000000
(1646670988.164954) vcan0 000001D0#4B211B323D5B3863
(1646670988.165223) vcan0 0000014A#3A1F493D0D385E19
(1646670988.165357) vcan0 000001A3#0000000101000000
(1646670988.181501) vcan0 000001D0#595F39521F253F23
(1646670988.181970) vcan0 0000014A#51412C4C28225919
(1646670988.182312) vcan0 000001A3#0000000101000000
(1646670988.197139) vcan0 000001D0#3D41362D054B1721
(1646670988.197431) vcan0 0000014A#54471E623E632643
(1646670988.197515) vcan0 000001A3#0000000101000000
(1646670988.212963) vcan0 000001D0#27262E205A5E6047
(1646670988.213133) vcan0 0000014A#31022C500C250138
(1646670988.213225) vcan0 000001A3#0000000101000000
(1646670988.230949) vcan0 000001D0#25270A582C2B2F03
(1646670988.231252) vcan0 0000014A#185458502E4A3442
(1646670988.231502) vcan0 000001A3#0000000101000000
(1646670988.245018) vcan0 000001D0#530704333F60214A
(1646670988.245296) vcan0 0000014A#4824371A4B3C2235
(1646670988.245426) vcan0 000001A3#0000000101000000
(1646670988.245487) vcan0 0000014A#34223A034E066126
(1646670988.262994) vcan0 000001D0#5862565B10153F2D
(1646670988.263289) vcan0 0000014A#50634C3A412E1C4E
(1646670988.263371) vcan0 000001A3#0000000101000000
(1646670988.277161) vcan0 000001D0#1E5D38311807404D
(1646670988.277576) vcan0 0000014A#333934443A095124
(1646670988.277923) vcan0 000001A3#0000000101000000
(1646670988.292956) vcan0 000001D0#430E3F405C295705
(1646670988.293085) vcan0 0000014A#17182C2D2F4E3653
(1646670988.293222) vcan0 000001A3#0000000101000000
(1646670988.310695) vcan0 000001D0#0E5237354B03321B
(1646670988.311259) vcan0 0000014A#180C5844374E165D
(1646670988.311435) vcan0 000001A3#0000000101000000
(1646670988.324978) vcan0 000001D0#48302E253D0D5C3B
(1646670988.325173) vcan0 0000014A#5920551530571305
(1646670988.325346) vcan0 000001A3#0000000101000000
(1646670988.343210) vcan0 000001D0#2F405127555F6206
(1646670988.343575) vcan0 0000014A#2D48014C302A0359
(1646670988.343859) vcan0 000001A3#0000000101000000
(1646670988.355957) vcan0 000001D0#47065A0B3D5C1745
(1646670988.356088) vcan0 0000014A#5E35342437534049
(1646670988.356135) vcan0 000001A3#0000000101000000
(1646670988.371936) vcan0 000001D0#3E460F085A625806
(1646670988.372057) vcan0 0000014A#3C56620D49482C42
(1646670988.372106) vcan0 000001A3#0000000101000000
(1646670988.389804) vcan0 000001D0#39064D132729534B
(1646670988.390118) vcan0 0000014A#3A401B6029280512
(1646670988.390277) vcan0 000001A3#0000000101000000
(1646670988.403952) vcan0 000001D0#4B15272A4F13332F
(1646670988.404095) vcan0 0000014A#213F5C2C551E5060
(1646670988.404154) vcan0 000001A3#0000000101000000
(1646670988.421601) vcan0 000001D0#2060214339152326
(1646670988.422026) vcan0 0000014A#39591F2A5C26374B
(1646670988.422189) vcan0 000001A3#0000000101000000
(1646670988.435941) vcan0 000001D0#23072D513D3C5A27
(1646670988.436150) vcan0 0000014A#1F5D27093D513F06
(1646670988.436432) vcan0 000001A3#0000000101000000
(1646670988.452067) vcan0 000001D0#43550E0A3A105259
(1646670988.452241) vcan0 0000014A#510E0B134C520D22
(1646670988.454773) vcan0 000001A3#0000000101000000
(1646670988.468152) vcan0 000001D0#3C1D1A4A25010E3F
(1646670988.468493) vcan0 0000014A#49363A0B0D610F43
(1646670988.468623) vcan0 000001A3#0000000101000000
(1646670988.484034) vcan0 000001D0#2305294E03115946
(1646670988.484289) vcan0 0000014A#5E2338492B5A463C
(1646670988.484479) vcan0 000001A3#0000000101000000
(1646670988.502205) vcan0 000001D0#250B1239592C6155
(1646670988.502458) vcan0 0000014A#152F0F012144025F
(1646670988.502526) vcan0 000001A3#0000000101000000
(1646670988.515940) vcan0 000001D0#3306453761203D44
(1646670988.516068) vcan0 0000014A#47393E3B220A413A
(1646670988.516115) vcan0 000001A3#0000000101000000
(1646670988.534341) vcan0 000001D0#37263F281405491C
(1646670988.534769) vcan0 0000014A#1F25203123562102
(1646670988.534968) vcan0 000001A3#0000000101000000
(1646670988.547954) vcan0 000001D0#385A2E0D115C3C3B
(1646670988.548081) vcan0 0000014A#50100129091F1620
(1646670988.548128) vcan0 000001A3#0000000101000000
(1646670988.564105) vcan0 000001D0#4A53416022350618
(1646670988.564589) vcan0 0000014A#404E503E22491815
(1646670988.564906) vcan0 000001A3#0000000101000000
(1646670988.580144) vcan0 000001D0#161F384A1B025B47
(1646670988.580503) vcan0 0000014A#040D322550544C22
(1646670988.580693) vcan0 000001A3#0000000101000000
(1646670988.595953) vcan0 000001D0#1E4441504C4E464D
(1646670988.596080) vcan0 0000014A#112A305C5A192D50
(1646670988.596126) vcan0 000001A3#0000000101000000
(1646670988.613734) vcan0 000001D0#203C26444C480A4B
(1646670988.614004) vcan0 0000014A#2B0D065F4524311C
(1646670988.614121) vcan0 000001A3#0000000101000000
(1646670988.629106) vcan0 000001D0#3642303D4F3C4E25
(1646670988.629383) vcan0 0000014A#303B29195F4A635C
(1646670988.629499) vcan0 000001A3#0000000101000000
(1646670988.647383) vcan0 000001D0#2C2B3044121C4F1E
(1646670988.647780) vcan0 0000014A#5418502D133A3C38
(1646670988.647916) vcan0 000001A3#0000000101000000
(1646670988.661011) vcan0 000001D0#501D574E0C224127
(1646670988.661363) vcan0 0000014A#1A4F4E5E4B4D0D4A
(1646670988.661441) vcan0 000001A3#0000000101000000
(1646670988.677215) vcan0 000001D0#2F21302809600E4D
(1646670988.677636) vcan0 0000014A#3934573C190F115D
(1646670988.677818) vcan0 000001A3#0000000101000000
(1646670988.693070) vcan0 000001D0#3E202631352F4207
(1646670988.693388) vcan0 0000014A#610A061C3C4D1544
(1646670988.693440) vcan0 000001A3#0000000101000000
(1646670988.709117) vcan0 000001D0#35065239211B594D
(1646670988.709413) vcan0 0000014A#09112C214E544F17
(1646670988.709641) vcan0 000001A3#0000000101000000
(1646670988.726982) vcan0 000001D0#1E0E4A133C3D0B14
(1646670988.727444) vcan0 0000014A#4052581254031902
(1646670988.727599) vcan0 000001A3#0000000101000000
(1646670988.741090) vcan0 000001D0#181C0D3B5B1F352D
(1646670988.741336) vcan0 0000014A#0A4920400804474B
(1646670988.741401) vcan0 000001A3#0000000101000000
(1646670988.757250) vcan0 000001D0#4248323F081E3941
(1646670988.757617) vcan0 0000014A#4C105240580A3944
(1646670988.757729) vcan0 000001A3#0000000101000000
(1646670988.773160) vcan0 000001D0#0D0C2D620A614435
(1646670988.773413) vcan0 0000014A#13194E3E26204D48
(1646670988.773476) vcan0 000001A3#0000000101000000
(1646670988.773625) vcan0 000001A3#4D5B2022265D1537
(1646670988.788949) vcan0 000001D0#02242E3B10291417
(1646670988.789086) vcan0 0000014A#225C4E2A44541107
(1646670988.789191) vcan0 000001A3#0000000101000000
(1646670988.806915) vcan0 000001D0#59220F521C3E1226
(1646670988.807139) vcan0 0000014A#59603D26484E0D3E
(1646670988.807319) vcan0 000001A3#0000000101000000
(1646670988.820953) vcan0 000001D0#1740323E0151465F
(1646670988.821202) vcan0 0000014A#503F28292C4B540A
(1646670988.821312) vcan0 000001A3#0000000101000000
(1646670988.838919) vcan0 000001D0#1904064D1A513022
(1646670988.839062) vcan0 0000014A#2A0D311E5F560B5B
(1646670988.839190) vcan0 000001A3#0000000101000000
(1646670988.853175) vcan0 000001D0#25525B2A072B3B21
(1646670988.853414) vcan0 0000014A#2131521043044B5F
(1646670988.853481) vcan0 000001A3#0000000101000000
(1646670988.869111) vcan0 000001D0#1E0119214D230E62
(1646670988.869384) vcan0 0000014A#5E503D33323B442F
(1646670988.869546) vcan0 000001A3#0000000101000000
(1646670988.886630) vcan0 000001D0#5F3F1754034D0B08
(1646670988.886769) vcan0 0000014A#423D181F46352D55
(1646670988.886966) vcan0 000001A3#0000000101000000
(1646670988.900990) vcan0 000001D0#231E4D1D2F561C53
(1646670988.901248) vcan0 0000014A#5C3E524E1A4F0A10
(1646670988.901360) vcan0 000001A3#0000000101000000
(1646670988.918991) vcan0 000001D0#2C54575F4E02173F
(1646670988.919299) vcan0 0000014A#520353094E0C4C29
(1646670988.919349) vcan0 000001A3#0000000101000000
(1646670988.933367) vcan0 000001D0#5316215055065C34
(1646670988.933578) vcan0 0000014A#3D1E0F122D36425F
(1646670988.933685) vcan0 000001A3#0000000101000000
(1646670988.949489) vcan0 000001D0#30581E323E4E2E19
(1646670988.949902) vcan0 0000014A#434F4E1B5D5E3A62
(1646670988.952128) vcan0 000001A3#0000000101000000
(1646670988.965165) vcan0 000001D0#3F190336094A5001
(1646670988.965395) vcan0 0000014A#4516241507435B53
(1646670988.965458) vcan0 000001A3#0000000101000000
(1646670988.980984) vcan0 000001D0#2E0B484F3C041011
(1646670988.981324) vcan0 0000014A#58334A48624B0A61
(1646670988.981493) vcan0 000001A3#0000000101000000
(1646670988.998803) vcan0 000001D0#3846174B01081C1A
(1646670988.999043) vcan0 0000014A#16390B3B30105C45
(1646670988.999103) vcan0 000001A3#0000000101000000
(1646670989.013025) vcan0 000001D0#475A573F13140D46
(1646670989.013269) vcan0 0000014A#223A3B1943134F36
(1646670989.013377) vcan0 000001A3#0000000101000000
(1646670989.029047) vcan0 000001D0#5C01410A355A3E28
(1646670989.031024) vcan0 0000014A#47503B194B3F2361
(1646670989.031122) vcan0 000001A3#0000000101000000
(1646670989.046220) vcan0 000001D0#06310B405C025212
(1646670989.046387) vcan0 0000014A#175F49453129284F
(1646670989.046469) vcan0 000001A3#0000000101000000
(1646670989.062154) vcan0 000001D0#520B47254A04461C
(1646670989.062591) vcan0 0000014A#102B0C27362F6340
(1646670989.062877) vcan0 000001A3#0000000101000000
(1646670989.078147) vcan0 000001D0#50140E4D595C3630
(1646670989.078378) vcan0 0000014A#61462D593A3D260C
(1646670989.078476) vcan0 000001A3#0000000101000000
(1646670989.093975) vcan0 000001D0#111E0D0F60615F1B
(1646670989.094212) vcan0 0000014A#241E01511F55060A
(1646670989.094304) vcan0 000001A3#0000000101000000
(1646670989.111819) vcan0 000001D0#1A281F364C5F510C
(1646670989.111965) vcan0 0000014A#292B0C581E394E51
(1646670989.112020) vcan0 000001A3#0000000101000000
(1646670989.126036) vcan0 000001D0#341C01374B53300A
(1646670989.126325) vcan0 0000014A#33123B3D132C3141
(1646670989.126463) vcan0 000001A3#0000000101000000
(1646670989.143883) vcan0 000001D0#3F14400C3D17434E
(1646670989.144058) vcan0 0000014A#04101E463209563C
(1646670989.144113) vcan0 000001A3#0000000101000000
(1646670989.158198) vcan0 000001D0#440D3A162732182A
(1646670989.158513) vcan0 0000014A#1B03114240375A0E
(1646670989.158690) vcan0 000001A3#0000000101000000
(1646670989.173993) vcan0 000001D0#3B1A394542304A44
(1646670989.174304) vcan0 0000014A#564B532B412D0C08
(1646670989.174483) vcan0 000001A3#0000000101000000
(1646670989.191919) vcan0 000001D0#22061909554D4C1D
(1646670989.192467) vcan0 0000014A#3F196022162F2030
(1646670989.192688) vcan0 000001A3#0000000101000000
(1646670989.205995) vcan0 000001D0#611A140839045E50
(1646670989.206301) vcan0 0000014A#284A5A311D0F181E
(1646670989.206476) vcan0 000001A3#0000000101000000
(1646670989.223949) vcan0 000001D0#11123E3D381F3C3B
(1646670989.224514) vcan0 0000014A#2263344A4845572B
(1646670989.224889) vcan0 000001A3#0000000101000000
(1646670989.238154) vcan0 000001D0#35164425581E1D2E
(1646670989.238476) vcan0 0000014A#612D2B5104234855
(1646670989.238682) vcan0 000001A3#0000000101000000
(1646670989.254070) vcan0 000001D0#2B4C32161C36490C
(1646670989.254475) vcan0 0000014A#3E63120A161B4528
(1646670989.254779) vcan0 000001A3#0000000101000000
(1646670989.270337) vcan0 000001D0#4D26222337314557
(1646670989.270956) vcan0 0000014A#4E42432C2E323C49
(1646670989.271239) vcan0 000001A3#0000000101000000
(1646670989.285999) vcan0 000001D0#061D401E01260333
(1646670989.286259) vcan0 0000014A#05250E5D4A0C3247
(1646670989.286393) vcan0 000001A3#0000000101000000
(1646670989.304526) vcan0 000001D0#22373162425E4A15
(1646670989.304845) vcan0 0000014A#300A24594C131719
(1646670989.304939) vcan0 000001A3#0000000101000000
(1646670989.318079) vcan0 000001D0#40262B1A4D342251
(1646670989.318329) vcan0 000001D0#2239290F3A330620
(1646670989.318343) vcan0 0000014A#0F624F233353030E
(1646670989.318484) vcan0 000001A3#0000000101000000
(1646670989.336425) vcan0 000001D0#32572B173143281E
(1646670989.336849) vcan0 0000014A#20545B2208613A56
(1646670989.337014) vcan0 000001A3#0000000101000000
(1646670989.350557) vcan0 000001D0#525F4F325E0D531C
(1646670989.350763) vcan0 0000014A#5A0C1F2A074E3A22
(1646670989.350833) vcan0 000001A3#0000000101000000
(1646670989.365138) vcan0 000001D0#1C143F62585B3B0B
(1646670989.365466) vcan0 0000014A#4906590C144B213C
(1646670989.365685) vcan0 000001A3#0000000101000000
(1646670989.383547) vcan0 000001D0#21505C5E11621936
(1646670989.383950) vcan0 0000014A#0242415808150550
(1646670989.384063) vcan0 000001A3#0000000101000000
(1646670989.397101) vcan0 000001D0#3C273D295D0C1215
(1646670989.397353) vcan0 0000014A#3E4C5B3437415D32
(1646670989.397454) vcan0 000001A3#0000000101000000
(1646670989.415540) vcan0 000001D0#4E1526623E492327
(1646670989.415696) vcan0 0000014A#2708321912054F31
(1646670989.415746) vcan0 000001A3#0000000101000000
(1646670989.429054) vcan0 000001D0#2C364505132A4057
(1646670989.429433) vcan0 0000014A#1D514A1716585013
(1646670989.429588) vcan0 000001A3#0000000101000000
(1646670989.445106) vcan0 000001D0#1101535803130936
(1646670989.445479) vcan0 0000014A#5F450D42603D4C38
(1646670989.445734) vcan0 000001A3#0000000101000000
(1646670989.461201) vcan0 000001D0#0608342B4A490747
(1646670989.461410) vcan0 0000014A#0308180946313236
(1646670989.461488) vcan0 000001A3#0000000101000000
(1646670989.477002) vcan0 000001D0#2809034B3B393C41
(1646670989.477257) vcan0 0000014A#232E32310C25525B
(1646670989.477405) vcan0 000001A3#0000000101000000
(1646670989.495815) vcan0 000001D0#5A172822380D1B07
(1646670989.495967) vcan0 0000014A#2C11591F0F021529
(1646670989.496024) vcan0 000001A3#0000000101000000
(1646670989.510016) vcan0 000001D0#2F21192E46041203
(1646670989.510280) vcan0 0000014A#1507185542262A34
(1646670989.510403) vcan0 000001A3#0000000101000000
(1646670989.526080) vcan0 000001D0#1B2E2B2A4E305F61
(1646670989.528472) vcan0 0000014A#36572F52404A1420
(1646670989.528743) vcan0 000001A3#0000000101000000
(1646670989.541999) vcan0 000001D0#264A2B394E106324
(1646670989.542337) vcan0 0000014A#0750152C370E2956
(1646670989.542459) vcan0 000001A3#0000000101000000
(1646670989.558393) vcan0 000001D0#4C5F2063512F4960
(1646670989.558802) vcan0 0000014A#020324536143422A
(1646670989.559116) vcan0 000001A3#0000000101000000
(1646670989.576020) vcan0 000001D0#3029451A4B5D3512
(1646670989.576158) vcan0 0000014A#3F111D523B120C57
(1646670989.576231) vcan0 000001A3#0000000101000000
(1646670989.590112) vcan0 000001D0#291A561945352721
(1646670989.590403) vcan0 0000014A#024344383E043657
(1646670989.590471) vcan0 000001A3#0000000101000000
(1646670989.608169) vcan0 000001D0#2F082A09235D4B40
(1646670989.608635) vcan0 0000014A#23424E2E6163571E
(1646670989.608951) vcan0 000001A3#0000000101000000
(1646670989.623147) vcan0 000001D0#222D2844483E4311
(1646670989.623330) vcan0 0000014A#395E4407374B5233
(1646670989.623378) vcan0 000001A3#0000000101000000
(1646670989.639452) vcan0 000001D0#40512948465A1F4F
(1646670989.639818) vcan0 0000014A#210809525A105426
(1646670989.640113) vcan0 000001A3#0000000101000000
(1646670989.655222) vcan0 000001D0#1255492F355E4750
(1646670989.655476) vcan0 0000014A#3009443B10564754
(1646670989.655557) vcan0 000001A3#0000000101000000
(1646670989.671549) vcan0 000001D0#5C5802334006410F
(1646670989.671798) vcan0 0000014A#0956083007032D51
(1646670989.671852) vcan0 000001A3#0000000101000000
(1646670989.689278) vcan0 000001D0#3F5A40020422311F
(1646670989.689554) vcan0 0000014A#5B1A4F2544520533
(1646670989.689624) vcan0 000001A3#0000000101000000
(1646670989.703056) vcan0 000001D0#3019043247426351
(1646670989.703389) vcan0 0000014A#0920250B1E151314
(1646670989.703548) vcan0 000001A3#0000000101000000
(1646670989.721620) vcan0 000001D0#1B4A6210275C1C30
(1646670989.721800) vcan0 0000014A#060F28505B591318
(1646670989.721888) vcan0 000001A3#0000000101000000
(1646670989.735357) vcan0 000001D0#250C403B3F284251
(1646670989.735577) vcan0 0000014A#1431590A4C4A453A
(1646670989.735633) vcan0 000001A3#0000000101000000
(1646670989.751112) vcan0 000001D0#3307282340534F1A
(1646670989.751426) vcan0 0000014A#1C3B35560C252163
(1646670989.751585) vcan0 000001A3#0000000101000000
(1646670989.768919) vcan0 000001D0#034551112B136019
(1646670989.769173) vcan0 0000014A#371062185A2D2C1C
(1646670989.769296) vcan0 000001A3#0000000101000000
(1646670989.783220) vcan0 000001D0#3B335B2A12043015
(1646670989.783421) vcan0 0000014A#105861463C270C40
(1646670989.783525) vcan0 000001A3#0000000101000000
(1646670989.801063) vcan0 000001D0#1946034B2B182F49
(1646670989.801721) vcan0 0000014A#374402405932562B
(1646670989.802283) vcan0 000001A3#0000000101000000
(1646670989.815071) vcan0 000001D0#13350852515E480E
(1646670989.815210) vcan0 0000014A#2124053B3C614227
(1646670989.815262) vcan0 000001A3#0000000101000000
(1646670989.831038) vcan0 000001D0#2134291A375F2052
(1646670989.831257) vcan0 0000014A#1D01202461021A35
(1646670989.831308) vcan0 000001A3#0000000101000000
(1646670989.849808) vcan0 000001D0#2E535A345D0A3741
(1646670989.850383) vcan0 0000014A#4819203E345F6039
(1646670989.850787) vcan0 000001A3#0000000101000000
(1646670989.850811) vcan0 0000014A#1B5A473B3F263653
(1646670989.863006) vcan0 000001D0#533C415C445F491E
(1646670989.863138) vcan0 0000014A#4B33455331101736
(1646670989.863186) vcan0 000001A3#0000000101000000
(1646670989.881655) vcan0 000001D0#5662611B5A304D36
(1646670989.881950) vcan0 0000014A#3A0D12582F55504F
(1646670989.882109) vcan0 000001A3#0000000101000000
(1646670989.895227) vcan0 000001D0#1B5140624D1C3547
(1646670989.895603) vcan0 0000014A#61421C533A62605D
(1646670989.895726) vcan0 000001A3#0000000101000000
(1646670989.911032) vcan0 000001D0#1605071C5C590B1E
(1646670989.911172) vcan0 0000014A#150C2E5B4A4D5E25
(1646670989.911285) vcan0 000001A3#0000000101000000
(1646670989.929696) vcan0 000001D0#490655452A404F11
(1646670989.930034) vcan0 0000014A#3606140D492E1F11
(1646670989.930411) vcan0 000001A3#0000000101000000
(1646670989.943042) vcan0 000001D0#3F3623061C502763
(1646670989.943269) vcan0 0000014A#0A50222D634C5A16
(1646670989.943370) vcan0 000001A3#0000000101000000
(1646670989.959107) vcan0 000001D0#5D3E044C2C605528
(1646670989.961764) vcan0 0000014A#081C453726293B54
(1646670989.961927) vcan0 000001A3#0000000101000000
(1646670989.975124) vcan0 000001D0#40360905262D591C
(1646670989.975431) vcan0 0000014A#50590B622A04314E
(1646670989.975566) vcan0 000001A3#0000000101000000
(1646670989.991182) vcan0 000001D0#3955320E5E3C2961
(1646670989.991604) vcan0 0000014A#3A5C3D0C15024E45
(1646670989.992068) vcan0 000001A3#0000000101000000
(1646670990.007163) vcan0 000001D0#440341282F1F0C52
(1646670990.007411) vcan0 0000014A#302420272A114855
(1646670990.007515) vcan0 000001A3#0000000101000000
(1646670990.023370) vcan0 000001D0#3B09385A4E0C6105
(1646670990.023601) vcan0 0000014A#24222826090F4918
(1646670990.023662) vcan0 000001A3#0000000101000000
(1646670990.041332) vcan0 000001D0#6233561263015E44
(1646670990.041862) vcan0 0000014A#2D1B174116370515
(1646670990.042096) vcan0 000001A3#0000000101000000
(1646670990.055112) vcan0 000001D0#100455220B3A0C58
(1646670990.055273) vcan0 0000014A#540901533F162021
(1646670990.055323) vcan0 000001A3#0000000101000000
(1646670990.071766) vcan0 000001D0#36151B533A221A2B
(1646670990.071960) vcan0 0000014A#444F56030A2D334A
(1646670990.072013) vcan0 000001A3#0000000101000000
(1646670990.089031) vcan0 000001D0#4C2E233F340B1C2A
(1646670990.089501) vcan0 0000014A#42581B34553C1063
(1646670990.089722) vcan0 000001A3#0000000101000000
(1646670990.103038) vcan0 000001D0#4C1F18356015535A
(1646670990.103269) vcan0 0000014A#1401455149124638
(1646670990.103321) vcan0 000001A3#0000000101000000
(1646670990.121672) vcan0 000001D0#1B52283F55272156
(1646670990.122137) vcan0 0000014A#01333B171F3C554B
(1646670990.122212) vcan0 000001A3#0000000101000000
(1646670990.135137) vcan0 000001D0#5F014B1E3F45155A
(1646670990.135276) vcan0 0000014A#050A5631360C1D3E
(1646670990.135398) vcan0 000001A3#0000000101000000
(1646670990.151854) vcan0 000001D0#482B193C3416130F
(1646670990.154438) vcan0 0000014A#17612B30165A2C0A
(1646670990.154545) vcan0 000001A3#0000000101000000
(1646670990.167113) vcan0 000001D0#561A5C386104320E
(1646670990.167743) vcan0 0000014A#372A1A0B3317203C
(1646670990.167945) vcan0 000001A3#0000000101000000
(1646670990.183136) vcan0 000001D0#08204809424D2F3A
(1646670990.183410) vcan0 0000014A#385F0A4B08115243
(1646670990.183559) vcan0 000001A3#0000000101000000
(1646670990.201131) vcan0 000001D0#5C3C034F05423354
(1646670990.201424) vcan0 0000014A#2F540B41011C5A06
(1646670990.201550) vcan0 000001A3#0000000101000000
(1646670990.215531) vcan0 000001D0#03494F263D19471A
(1646670990.215751) vcan0 0000014A#233D5042581B4909
(1646670990.215810) vcan0 000001A3#0000000101000000
(1646670990.232869) vcan0 000001D0#1B0762132B2D4D4C
(1646670990.233152) vcan0 0000014A#5B4F525147282F1F
(1646670990.233319) vcan0 000001A3#0000000101000000
(1646670990.247615) vcan0 000001D0#0520134B22085B34
(1646670990.247786) vcan0 0000014A#0C2B610720131724
(1646670990.247832) vcan0 000001A3#0000000101000000
(1646670990.263642) vcan0 000001D0#023A5D1663522848
(1646670990.263967) vcan0 0000014A#4A034648232A555A
(1646670990.264033) vcan0 000001A3#0000000101000000
(1646670990.279272) vcan0 000001D0#3D1A3C1C435D1835
(1646670990.279670) vcan0 0000014A#5520120F023A4C32
(1646670990.279765) vcan0 000001A3#0000000101000000
(1646670990.295655) vcan0 000001D0#3B55222E203E0345
(1646670990.295809) vcan0 0000014A#150B023C3A273228
(1646670990.295866) vcan0 000001A3#0000000101000000
(1646670990.311281) vcan0 000001D0#14593527472E1D03
(1646670990.311735) vcan0 0000014A#09134E0F482F531B
(1646670990.311888) vcan0 000001A3#0000000101000000
(1646670990.328977) vcan0 000001D0#2F2333314621150A
(1646670990.329263) vcan0 0000014A#1D154A400351305D
(1646670990.329347) vcan0 000001A3#0000000101000000
(1646670990.343329) vcan0 000001D0#4C56415329213033
(1646670990.343730) vcan0 0000014A#4E541F3240014636
(1646670990.343833) vcan0 000001A3#0000000101000000
(1646670990.359908) vcan0 000001D0#4C4F3B6360205F24
(1646670990.360134) vcan0 0000014A#550F04100D31615B
(1646670990.360274) vcan0 000001A3#0000000101000000
(1646670990.374325) vcan0 000001D0#595756093B583139
(1646670990.374596) vcan0 0000014A#382A04300733500B
(1646670990.374716) vcan0 000001A3#0000000101000000
(1646670990.374938) vcan0 000001A3#165F5A4D42593430
(1646670990.390149) vcan0 000001D0#3E3C2B2F2E5C1518
(1646670990.390417) vcan0 0000014A#31280E4850452A15
(1646670990.390548) vcan0 000001A3#0000000101000000
(1646670990.407772) vcan0 000001D0#271222252B143D3B
(1646670990.407916) vcan0 0000014A#362F0B5C3B4B4018
(1646670990.407970) vcan0 000001A3#0000000101000000
(1646670990.422151) vcan0 000001D0#49583A3212314C2B
(1646670990.422401) vcan0 0000014A#3842036258131532
(1646670990.422527) vcan0 000001A3#0000000101000000
(1646670990.440442) vcan0 000001D0#18401552575E5F16
(1646670990.440821) vcan0 0000014A#1B032B3136450660
(1646670990.440994) vcan0 000001A3#0000000101000000
(1646670990.454284) vcan0 000001D0#49472E40235A4334
(1646670990.454650) vcan0 0000014A#104A233955354822
(1646670990.454789) vcan0 000001A3#0000000101000000
(1646670990.470641) vcan0 000001D0#5C481F2C49471C4C
(1646670990.471116) vcan0 0000014A#030F2E0E18444B4F
(1646670990.471564) vcan0 000001A3#0000000101000000
(1646670990.486389) vcan0 000001D0#082A320C2C1F061B
(1646670990.486661) vcan0 0000014A#2735533C37220207
(1646670990.486764) vcan0 000001A3#0000000101000000
(1646670990.502170) vcan0 000001D0#5C273F1B093E013B
(1646670990.502429) vcan0 0000014A#43214B1B1C0D335D
(1646670990.502575) vcan0 000001A3#0000000101000000
(1646670990.520598) vcan0 000001D0#5A38264C62361618
(1646670990.520966) vcan0 0000014A#33511A470F235B01
(1646670990.521075) vcan0 000001A3#0000000101000000
(1646670990.534168) vcan0 000001D0#0C3C481553044D37
(1646670990.534368) vcan0 0000014A#37103A0817180C57
(1646670990.534445) vcan0 000001A3#0000000101000000
(1646670990.552800) vcan0 000001D0#380563012920620A
(1646670990.553265) vcan0 0000014A#5725183D5A4B3861
(1646670990.553511) vcan0 000001A3#0000000101000000
(1646670990.566173) vcan0 000001D0#5339502E034A0520
(1646670990.566505) vcan0 0000014A#3328234F3D371F04
(1646670990.566724) vcan0 000001A3#0000000101000000
(1646670990.582161) vcan0 000001D0#52052D391C2C5625
(1646670990.582497) vcan0 0000014A#3B3C393335253111
(1646670990.582641) vcan0 000001A3#0000000101000000
(1646670990.599693) vcan0 000001D0#2B2339572A303F46
(1646670990.599828) vcan0 0000014A#37551A2D25321B0B
(1646670990.599876) vcan0 000001A3#0000000101000000
(1646670990.614128) vcan0 000001D0#2B4761572C464D38
(1646670990.614389) vcan0 0000014A#03462C050A0D3B27
(1646670990.614492) vcan0 000001A3#0000000101000000
(1646670990.633344) vcan0 000001D0#133E142A504C3F0F
(1646670990.633752) vcan0 0000014A#612C5A50293E582A
(1646670990.633924) vcan0 000001A3#0000000101000000
(1646670990.647382) vcan0 000001D0#022A59635D1D5A03
(1646670990.647527) vcan0 0000014A#17274A0756195E34
(1646670990.647572) vcan0 000001A3#0000000101000000
(1646670990.663805) vcan0 000001D0#153B28302713373E
(1646670990.664397) vcan0 0000014A#49205C2B301F1734
(1646670990.664723) vcan0 000001A3#0000000101000000
(1646670990.679275) vcan0 000001D0#060B5E2F36544C62
(1646670990.679616) vcan0 0000014A#5F052E08020B4F25
(1646670990.679707) vcan0 000001A3#0000000101000000
(1646670990.695079) vcan0 000001D0#605732365C5B2409
(1646670990.695419) vcan0 0000014A#615C0B503F31125E
(1646670990.695572) vcan0 000001A3#0000000101000000
(1646670990.712777) vcan0 000001D0#362C45040E371726
(1646670990.713158) vcan0 0000014A#05105D3D3F072458
(1646670990.713499) vcan0 000001A3#0000000101000000
(1646670990.727122) vcan0 000001D0#0E5A10043B5C3339
(1646670990.727444) vcan0 0000014A#10265A3F0C611B1E
(1646670990.727578) vcan0 000001A3#0000000101000000
(1646670990.745639) vcan0 000001D0#255B3A013745425A
(1646670990.746022) vcan0 0000014A#2E5803551A212F44
(1646670990.746188) vcan0 000001A3#0000000101000000
(1646670990.759287) vcan0 000001D0#2C05594F1F0A1840
(1646670990.759441) vcan0 0000014A#0F183B1A10595D19
(1646670990.759553) vcan0 000001A3#0000000101000000
(1646670990.775234) vcan0 000001D0#2114070D03151F62
(1646670990.775489) vcan0 0000014A#201D44312F48280F
(1646670990.775591) vcan0 000001A3#0000000101000000
(1646670990.793262) vcan0 000001D0#152E3F462C555211
(1646670990.793661) vcan0 0000014A#200E262238050311
(1646670990.793878) vcan0 000001A3#0000000101000000
(1646670990.807135) vcan0 000001D0#4946331D3A364B0E
(1646670990.807459) vcan0 0000014A#0F1B372E17471002
(1646670990.807562) vcan0 000001A3#0000000101000000
(1646670990.825209) vcan0 000001D0#02473508263B2038
(1646670990.825654) vcan0 0000014A#344D1F375B4F0332
(1646670990.825922) vcan0 000001A3#0000000101000000
(1646670990.839231) vcan0 000001D0#03164310282F054B
(1646670990.839496) vcan0 0000014A#424B405816042E20
(1646670990.839570) vcan0 000001A3#0000000101000000
(1646670990.855121) vcan0 000001D0#5E1A1041111D240A
(1646670990.855422) vcan0 0000014A#09582B0C45563355
(1646670990.855562) vcan0 000001A3#0000000101000000
(1646670990.873103) vcan0 000001D0#2E065F18514C234D
(1646670990.873316) vcan0 0000014A#300A182D0E581E56
(1646670990.873398) vcan0 000001A3#0000000101000000
(1646670990.887187) vcan0 000001D0#1D5C3B2063214906
(1646670990.887487) vcan0 0000014A#381D5104431C1F58
(1646670990.887577) vcan0 000001A3#0000000101000000
(1646670990.905455) vcan0 000001D0#340A2B3624490263
(1646670990.905862) vcan0 0000014A#4929014E14035660
(1646670990.906089) vcan0 000001A3#0000000101000000
(1646670990.919362) vcan0 000001D0#035F02401F340623
(1646670990.919665) vcan0 000001D0#423C5D075F455725
(1646670990.919701) vcan0 0000014A#415B4A08541A270E
(1646670990.919788) vcan0 000001A3#0000000101000000
(1646670990.935186) vcan0 000001D0#0C4B462D423F3251
(1646670990.935551) vcan0 0000014A#480E32030F26154A
(1646670990.935653) vcan0 000001A3#0000000101000000
(1646670990.951226) vcan0 000001D0#102C49113B57612E
(1646670990.951610) vcan0 0000014A#5C2C0F042F633B36
(1646670990.951682) vcan0 000001A3#0000000101000000
(1646670990.967129) vcan0 000001D0#321C5B1029384D13
(1646670990.967414) vcan0 0000014A#315B03381614015A
(1646670990.967579) vcan0 000001A3#0000000101000000
(1646670990.983284) vcan0 000001D0#1537400C5C440D4D
(1646670990.985343) vcan0 0000014A#194F0B143A4B5D41
(1646670990.985486) vcan0 000001A3#0000000101000000
(1646670990.999162) vcan0 000001D0#355D031C4336515F
(1646670990.999428) vcan0 0000014A#052259480C4B1755
(1646670990.999561) vcan0 000001A3#0000000101000000
(1646670991.017463) vcan0 000001D0#10380B5714190447
(1646670991.017721) vcan0 0000014A#0512163606521532
(1646670991.017790) vcan0 000001A3#0000000101000000
(1646670991.031322) vcan0 000001D0#2D29243C5C480860
(1646670991.031579) vcan0 0000014A#4760615F4E110643
(1646670991.031650) vcan0 000001A3#0000000101000000
(1646670991.047216) vcan0 000001D0#0C03445C2604482F
(1646670991.047554) vcan0 0000014A#3E4F564628265960
(1646670991.047752) vcan0 000001A3#0000000101000000
(1646670991.065140) vcan0 000001D0#161B4124490E0A1A
(1646670991.065452) vcan0 0000014A#2D4B0E060F194A2A
(1646670991.065664) vcan0 000001A3#0000000101000000
(1646670991.079236) vcan0 000001D0#5F295535230C5442
(1646670991.079551) vcan0 0000014A#0A26135B60123A51
(1646670991.079629) vcan0 000001A3#0000000101000000
(1646670991.096959) vcan0 000001D0#1E1A52342B140648
(1646670991.097142) vcan0 0000014A#4B5A3E575E254951
(1646670991.097273) vcan0 000001A3#0000000101000000
(1646670991.111345) vcan0 000001D0#0C11564E18172F07
(1646670991.111649) vcan0 0000014A#4D04551033421939
(1646670991.111726) vcan0 000001A3#0000000101000000
(1646670991.127049) vcan0 000001D0#4F61174A1B5B1927
(1646670991.127335) vcan0 0000014A#2A2C19121C4E0B5E
(1646670991.127506) vcan0 000001A3#0000000101000000
(1646670991.144883) vcan0 000001D0#2117013211082F34
(1646670991.145149) vcan0 0000014A#0602531A0B0D030E
(1646670991.145274) vcan0 000001A3#0000000101000000
(1646670991.159088) vcan0 000001D0#5B4F11093148213A
(1646670991.159290) vcan0 0000014A#14395D54255E300F
(1646670991.159374) vcan0 000001A3#0000000101000000
(1646670991.177297) vcan0 000001D0#290736424E1A493D
(1646670991.177564) vcan0 0000014A#0B605C34033B542E
(1646670991.177681) vcan0 000001A3#0000000101000000
(1646670991.191144) vcan0 000001D0#3D37120418554401
(1646670991.191299) vcan0 0000014A#05510D1D134E0E53
(1646670991.191346) vcan0 000001A3#0000000101000000
(1646670991.207350) vcan0 000001D0#170E5E39212A5B3F
(1646670991.207667) vcan0 0000014A#024E530F48174318
(1646670991.207759) vcan0 000001A3#0000000101000000
(1646670991.223379) vcan0 000001D0#3544382D115E0636
(1646670991.223647) vcan0 0000014A#5837331D3C560C48
(1646670991.223707) vcan0 000001A3#0000000101000000
(1646670991.239131) vcan0 000001D0#42031432401B2907
(1646670991.239371) vcan0 0000014A#544561620D0C4F26
(1646670991.239461) vcan0 000001A3#0000000101000000
(1646670991.256958) vcan0 000001D0#5E2637463C310F5F
(1646670991.257323) vcan0 0000014A#34273D094603070F
(1646670991.257432) vcan0 000001A3#0000000101000000
(1646670991.271122) vcan0 000001D0#221B141C103C4713
(1646670991.271389) vcan0 0000014A#22250903585D5518
(1646670991.271520) vcan0 000001A3#0000000101000000
(1646670991.289712) vcan0 000001D0#03572E3231472A4A
(1646670991.290035) vcan0 0000014A#491124045F18633D
(1646670991.290342) vcan0 000001A3#0000000101000000
(1646670991.303259) vcan0 000001D0#59250F01060A4321
(1646670991.303575) vcan0 0000014A#314B5F511220160C
(1646670991.303672) vcan0 000001A3#0000000101000000
(1646670991.319312) vcan0 000001D0#293A6254562B6319
(1646670991.319619) vcan0 0000014A#3B3C474E42501C5A
(1646670991.319720) vcan0 000001A3#0000000101000000
(1646670991.337175) vcan0 000001D0#192A61443A5E072D
(1646670991.337473) vcan0 0000014A#2A374245252E364A
(1646670991.337612) vcan0 000001A3#0000000101000000
(1646670991.351209) vcan0 000001D0#401D485A04121B0D
(1646670991.351457) vcan0 0000014A#2D26021C182F5A52
(1646670991.351588) vcan0 000001A3#0000000101000000
(1646670991.368787) vcan0 000001D0#452A10393E352707
(1646670991.369282) vcan0 0000014A#1D18461B3A0E3430
(1646670991.369503) vcan0 000001A3#0000000101000000
(1646670991.382271) vcan0 000001D0#5A340F023C32604C
(1646670991.382517) vcan0 0000014A#2E53480346572845
(1646670991.382661) vcan0 000001A3#0000000101000000
(1646670991.398199) vcan0 000001D0#28111444183F4D60
(1646670991.398502) vcan0 0000014A#0349124606092C2A
(1646670991.398660) vcan0 000001A3#0000000101000000
(1646670991.415848) vcan0 000001D0#451D043E02431B2A
(1646670991.416045) vcan0 0000014A#385D5F040621172C
(1646670991.416112) vcan0 000001A3#0000000101000000
(1646670991.430098) vcan0 000001D0#2A365634374A0333
(1646670991.430426) vcan0 0000014A#2A0E403E1244410B
(1646670991.430599) vcan0 000001A3#0000000101000000
(1646670991.448749) vcan0 000001D0#045C49344D2B0526
(1646670991.449167) vcan0 0000014A#29480A07452A6114
(1646670991.449391) vcan0 0000014A#4A50242A3801320E
(1646670991.449441) vcan0 000001A3#0000000101000000
(1646670991.462144) vcan0 000001D0#2C1446202545590B
(1646670991.462356) vcan0 0000014A#26150E40102D3D31
(1646670991.462432) vcan0 000001A3#0000000101000000
(1646670991.478500) vcan0 000001D0#34225250280A1B5E
(1646670991.478799) vcan0 0000014A#1862422C550A045A
(1646670991.479004) vcan0 000001A3#0000000101000000
(1646670991.494333) vcan0 000001D0#07550D142803501C
(1646670991.494627) vcan0 0000014A#34051C43470C401D
(1646670991.494821) vcan0 000001A3#0000000101000000
(1646670991.510172) vcan0 000001D0#2E615F1E1C302548
(1646670991.510391) vcan0 0000014A#12514B345301132D
(1646670991.510524) vcan0 000001A3#0000000101000000
(1646670991.527725) vcan0 000001D0#290C1B5302071514
(1646670991.527864) vcan0 0000014A#1D55122B4D25105A
(1646670991.527911) vcan0 000001A3#0000000101000000
(1646670991.542190) vcan0 000001D0#011B12595F342E5B
(1646670991.542533) vcan0 0000014A#5D5240094D561303
(1646670991.542626) vcan0 000001A3#0000000101000000
(1646670991.558702) vcan0 000001D0#08525F093B073132
(1646670991.559138) vcan0 0000014A#4C512A2B09212E49
(1646670991.561396) vcan0 000001A3#0000000101000000
(1646670991.574861) vcan0 000001D0#3308323D131C2047
(1646670991.575098) vcan0 0000014A#5D455434093B2F1E
(1646670991.575204) vcan0 000001A3#0000000101000000
(1646670991.590276) vcan0 000001D0#16300409063B5633
(1646670991.590552) vcan0 0000014A#0E1E4E4F11153752
(1646670991.590631) vcan0 000001A3#0000000101000000
(1646670991.608020) vcan0 000001D0#0E270629482A3718
(1646670991.608168) vcan0 0000014A#332B521214363943
(1646670991.608359) vcan0 000001A3#0000000101000000
(1646670991.623191) vcan0 000001D0#254A125A3559622C
(1646670991.623332) vcan0 0000014A#5F075E450D163335
(1646670991.623461) vcan0 000001A3#0000000101000000
(1646670991.641330) vcan0 000001D0#3F340B255E35562D
(1646670991.641785) vcan0 0000014A#3C4A39080B0C1747
(1646670991.642022) vcan0 000001A3#0000000101000000
(1646670991.655230) vcan0 000001D0#37234D35590C4F2E
(1646670991.655468) vcan0 0000014A#425851531D010A17
(1646670991.655592) vcan0 000001A3#0000000101000000
(1646670991.671480) vcan0 000001D0#5D41155E2601554E
(1646670991.671912) vcan0 0000014A#052460134A56623D
(1646670991.672132) vcan0 000001A3#0000000101000000
(1646670991.687449) vcan0 000001D0#112A261E065A1B24
(1646670991.687675) vcan0 0000014A#4A4C4539593A4D36
(1646670991.687736) vcan0 000001A3#0000000101000000
(1646670991.703272) vcan0 000001D0#61063A5653250D59
(1646670991.703538) vcan0 0000014A#103649155A031C23
(1646670991.703605) vcan0 000001A3#0000000101000000
(1646670991.721273) vcan0 000001D0#1D543F28154E2B30
(1646670991.721505) vcan0 0000014A#4E37041621124B2A
(1646670991.721606) vcan0 000001A3#0000000101000000
(1646670991.735251) vcan0 000001D0#28442D5C4F1D3561
(1646670991.735519) vcan0 0000014A#5A043D522A4F0519
(1646670991.735586) vcan0 000001A3#0000000101000000
(1646670991.753409) vcan0 000001D0#113126483B496054
(1646670991.753847) vcan0 0000014A#2036630625521D5B
(1646670991.754109) vcan0 000001A3#0000000101000000
(1646670991.767134) vcan0 000001D0#5A541E1A4933014D
(1646670991.767415) vcan0 0000014A#265D05522946145B
(1646670991.767510) vcan0 000001A3#0000000101000000
(1646670991.783167) vcan0 000001D0#230744501E19335E
(1646670991.783389) vcan0 0000014A#3F143852404E0103
(1646670991.783446) vcan0 000001A3#0000000101000000
(1646670991.801370) vcan0 000001D0#362C501837110A3D
(1646670991.801630) vcan0 0000014A#4230271626083B59
(1646670991.801722) vcan0 000001A3#0000000101000000
(1646670991.815091) vcan0 000001D0#3F4A0D395C3E090C
(1646670991.815315) vcan0 0000014A#190C505E0D62114D
(1646670991.815433) vcan0 000001A3#0000000101000000
(1646670991.833204) vcan0 000001D0#300C2E0F2D444104
(1646670991.833556) vcan0 0000014A#4F2A3F555A450D48
(1646670991.833642) vcan0 000001A3#0000000101000000
(1646670991.847270) vcan0 000001D0#3A171C59385F605A
(1646670991.847641) vcan0 0000014A#3B2B4F4409405A58
(1646670991.847742) vcan0 000001A3#0000000403000000
(1646670991.863471) vcan0 000001D0#37493C35545D021E
(1646670991.863911) vcan0 0000014A#14614B1B57623056
(1646670991.864220) vcan0 000001A3#0000000403000000
(1646670991.879306) vcan0 000001D0#534D331418481D2E
(1646670991.879499) vcan0 0000014A#45625C1C12634303
(1646670991.879567) vcan0 000001A3#0000000403000000
(1646670991.895109) vcan0 000001D0#4E3B392A1842121C
(1646670991.895251) vcan0 0000014A#1336430B592F442A
(1646670991.895361) vcan0 000001A3#0000000403000000
(1646670991.912864) vcan0 000001D0#04632C4E03465B5E
(1646670991.913289) vcan0 0000014A#5562061925613B44
(1646670991.913464) vcan0 000001A3#0000000403000000
(1646670991.927209) vcan0 000001D0#5153484C49410F3A
(1646670991.927499) vcan0 0000014A#4D4A1F01201C6321
(1646670991.927571) vcan0 000001A3#0000000403000000
(1646670991.943432) vcan0 000001D0#2344072E5A0F2416
(1646670991.944129) vcan0 0000014A#60351E61621D145B
(1646670991.946797) vcan0 000001A3#0000000403000000
(1646670991.959365) vcan0 000001D0#62595B631446615C
(1646670991.959643) vcan0 0000014A#293F0419491A4324
(1646670991.959719) vcan0 000001A3#0000000403000000
(1646670991.975109) vcan0 000001D0#2E37123203205D09
(1646670991.975391) vcan0 0000014A#4D3B02090C1A1903
(1646670991.975456) vcan0 000001A3#0000000403000000
(1646670991.975580) vcan0 000001A3#1D262F472A0C1340
(1646670991.993040) vcan0 000001D0#4E0325450F2C1441
(1646670991.993309) vcan0 0000014A#010B27614D1F6050
(1646670991.993438) vcan0 000001A3#0000000403000000
(1646670992.007101) vcan0 000001D0#3F31621020190C16
(1646670992.007358) vcan0 0000014A#1A616349051B310C
(1646670992.007468) vcan0 000001A3#0000000403000000
(1646670992.023537) vcan0 000001D0#5C2C4B4C5A423405
(1646670992.025753) vcan0 0000014A#5E586163532B401E
(1646670992.025882) vcan0 000001A3#0000000403000000
(1646670992.039395) vcan0 000001D0#262D6336101B2B41
(1646670992.039639) vcan0 0000014A#431A05623501125D
(1646670992.039708) vcan0 000001A3#0000000403000000
(1646670992.055244) vcan0 000001D0#5004084F03195E48
(1646670992.055514) vcan0 0000014A#0B5F623E615C340D
(1646670992.055645) vcan0 000001A3#0000000403000000
(1646670992.072925) vcan0 000001D0#2826512B2F611D34
(1646670992.073077) vcan0 0000014A#182F50280A48510E
(1646670992.073131) vcan0 000001A3#0000000403000000
(1646670992.087181) vcan0 000001D0#0C182A435D030A23
(1646670992.087422) vcan0 0000014A#1E3E483430420E49
(1646670992.087514) vcan0 000001A3#0000000403000000
(1646670992.105564) vcan0 000001D0#46241C1F4C590302
(1646670992.106108) vcan0 0000014A#151731473B411C58
(1646670992.106292) vcan0 000001A3#0000000403000000
(1646670992.119577) vcan0 000001D0#4728080C0B315A34
(1646670992.119958) vcan0 0000014A#354B603B12163A4F
(1646670992.120138) vcan0 000001A3#0000000403000000
(1646670992.135148) vcan0 000001D0#042E253C17054028
(1646670992.135400) vcan0 0000014A#341263373656141C
(1646670992.135526) vcan0 000001A3#0000000403000000
(1646670992.153007) vcan0 000001D0#2606483C045F420C
(1646670992.153292) vcan0 0000014A#455B1F6207244C3D
(1646670992.153449) vcan0 000001A3#0000000403000000
(1646670992.167267) vcan0 000001D0#353D593A19421A22
(1646670992.167545) vcan0 0000014A#3A4A612F602E4706
(1646670992.167619) vcan0 000001A3#0000000403000000
(1646670992.185415) vcan0 000001D0#59185D30142B1F3C
(1646670992.185679) vcan0 0000014A#494D5619263B5402
(1646670992.186011) vcan0 000001A3#0000000403000000
(1646670992.199191) vcan0 000001D0#622A4E356012023A
(1646670992.199484) vcan0 0000014A#51524F0E013D1D43
(1646670992.199557) vcan0 000001A3#0000000403000000
(1646670992.215182) vcan0 000001D0#184B1B3A5C1D5F15
(1646670992.215457) vcan0 0000014A#0B3D2B4814043719
(1646670992.215590) vcan0 000001A3#0000000403000000
(1646670992.233140) vcan0 000001D0#3F2D3E61273C2102
(1646670992.233437) vcan0 0000014A#30475C1B0D310E37
(1646670992.233599) vcan0 000001A3#0000000403000000
(1646670992.247199) vcan0 000001D0#5415232D0E312E07
(1646670992.247482) vcan0 0000014A#374541210D0A5B0E
(1646670992.247631) vcan0 000001A3#0000000403000000
(1646670992.263185) vcan0 000001D0#463D4F01620D4517
(1646670992.265637) vcan0 0000014A#3E571253244F5B3D
(1646670992.265820) vcan0 000001A3#0000000403000000
(1646670992.279201) vcan0 000001D0#1A460A2507513C0F
(1646670992.279493) vcan0 0000014A#4E49551A215F2860
(1646670992.279569) vcan0 000001A3#0000000403000000
(1646670992.295190) vcan0 000001D0#0B1922363F2D3E59
(1646670992.295583) vcan0 0000014A#2A5D482C09490A25
(1646670992.295761) vcan0 000001A3#0000000403000000
(1646670992.311247) vcan0 000001D0#08265D6136551140
(1646670992.311635) vcan0 0000014A#46192A3C4E611D16
(1646670992.311791) vcan0 000001A3#0000000403000000
(1646670992.327165) vcan0 000001D0#291106163B392F4F
(1646670992.327449) vcan0 0000014A#0B3618321D100C06
(1646670992.327602) vcan0 000001A3#0000000403000000
(1646670992.346251) vcan0 000001D0#5040350E161C2D2F
(1646670992.346555) vcan0 0000014A#514D1738225C143A
(1646670992.346675) vcan0 000001A3#0000000403000000
(1646670992.358309) vcan0 000001D0#2C195C0316450626
(1646670992.358549) vcan0 0000014A#3F3D205152024029
(1646670992.358654) vcan0 000001A3#0000000804000000
(1646670992.374316) vcan0 000001D0#615C1C5216042A19
(1646670992.374743) vcan0 0000014A#2D484E343E180424
(1646670992.374878) vcan0 000001A3#0000000804000000
(1646670992.391814) vcan0 000001D0#48613E3B144E2863
(1646670992.392065) vcan0 0000014A#03561C363E5F1A2F
(1646670992.392175) vcan0 000001A3#0000000804000000
(1646670992.406121) vcan0 000001D0#4C4E063C40363E2C
(1646670992.406375) vcan0 0000014A#190F512D321D3302
(1646670992.406475) vcan0 000001A3#0000000804000000
(1646670992.424557) vcan0 000001D0#45585014182E0752
(1646670992.424872) vcan0 0000014A#6158243C2A3B0432
(1646670992.425030) vcan0 000001A3#0000000804000000
(1646670992.438235) vcan0 000001D0#14551C120D2E5911
(1646670992.438542) vcan0 0000014A#2B5F0E634635053A
(1646670992.438700) vcan0 000001A3#0000000804000000
(1646670992.454102) vcan0 000001D0#39040A480B2A5134
(1646670992.454347) vcan0 0000014A#37600F5D030E2617
(1646670992.454495) vcan0 000001A3#0000000804000000
(1646670992.472093) vcan0 000001D0#2C4A301024025F5C
(1646670992.472521) vcan0 0000014A#575619524C494129
(1646670992.472655) vcan0 000001A3#0000000804000000
(1646670992.486254) vcan0 000001D0#25085E070D0C170E
(1646670992.486515) vcan0 0000014A#531B4B222B5A2302
(1646670992.486628) vcan0 000001A3#0000000804000000
(1646670992.504233) vcan0 000001D0#16074C364B272158
(1646670992.504686) vcan0 0000014A#354E0230181A1649
(1646670992.504997) vcan0 000001A3#0000000804000000
(1646670992.518148) vcan0 000001D0#23282E4E322C5918
(1646670992.518404) vcan0 000001D0#4960150A373C583E
(1646670992.518578) vcan0 0000014A#30415621283B353C
(1646670992.518726) vcan0 000001A3#0000000804000000
(1646670992.534594) vcan0 000001D0#3A1901600F561728
(1646670992.535023) vcan0 0000014A#254C042A1640533F
(1646670992.535190) vcan0 000001A3#0000000804000000
(1646670992.551706) vcan0 000001D0#484D246334605843
(1646670992.552009) vcan0 0000014A#58131F440B553441
(1646670992.552124) vcan0 000001A3#0000000804000000
(1646670992.566099) vcan0 000001D0#3362090719035F5E
(1646670992.566347) vcan0 0000014A#574342283834591B
(1646670992.566435) vcan0 000001A3#0000000804000000
(1646670992.582259) vcan0 000001D0#5650341B29445361
(1646670992.582705) vcan0 0000014A#43290E33624B3401
(1646670992.582983) vcan0 000001A3#0000000804000000
(1646670992.598619) vcan0 000001D0#3808171C2C601803
(1646670992.599097) vcan0 0000014A#2D2E5207324E4A1E
(1646670992.599251) vcan0 000001A3#0000000804000000
(1646670992.614156) vcan0 000001D0#621E23405E184B29
(1646670992.614440) vcan0 0000014A#37101D092625175F
(1646670992.614576) vcan0 000001A3#0000000804000000
(1646670992.633318) vcan0 000001D0#282C24460B075D1C
(1646670992.633613) vcan0 0000014A#5A362D4061332831
(1646670992.633802) vcan0 000001A3#0000000804000000
(1646670992.647136) vcan0 000001D0#2E54554115465127
(1646670992.647391) vcan0 0000014A#611A072F53291E28
(1646670992.647491) vcan0 000001A3#0000000804000000
(1646670992.663111) vcan0 000001D0#3018612E5C13412D
(1646670992.663364) vcan0 0000014A#4D0D2653540F2D17
(1646670992.663483) vcan0 000001A3#0000000804000000
(1646670992.681045) vcan0 000001D0#0C45615B63585456
(1646670992.681187) vcan0 0000014A#4B2C073602584D45
(1646670992.681244) vcan0 000001A3#0000000804000000
(1646670992.695113) vcan0 000001D0#27560D2D54211D61
(1646670992.695248) vcan0 0000014A#222F40093A453C3F
(1646670992.695295) vcan0 000001A3#0000000804000000
(1646670992.713464) vcan0 000001D0#1449133917305C4A
(1646670992.713819) vcan0 0000014A#39011A4C334D235D
(1646670992.713882) vcan0 000001A3#0000000804000000
(1646670992.727117) vcan0 000001D0#463407470561040D
(1646670992.727386) vcan0 0000014A#101B2262593C424B
(1646670992.727515) vcan0 000001A3#0000000804000000
(1646670992.743310) vcan0 000001D0#3A61024D55542715
(1646670992.743517) vcan0 0000014A#1B5F051D09264C15
(1646670992.743572) vcan0 000001A3#0000000804000000
(1646670992.759190) vcan0 000001D0#4A02105E354E522A
(1646670992.759501) vcan0 0000014A#221A32355A135228
(1646670992.759555) vcan0 000001A3#0000000804000000
(1646670992.775113) vcan0 000001D0#063D634941323F39
(1646670992.775345) vcan0 0000014A#1A1B2F0159482D0C
(1646670992.775413) vcan0 000001A3#0000000804000000
(1646670992.793415) vcan0 000001D0#3C333515271F200E
(1646670992.793830) vcan0 0000014A#4F6034272B161E2E
(1646670992.793948) vcan0 000001A3#0000000804000000
(1646670992.807186) vcan0 000001D0#3A50392A2E28485C
(1646670992.807403) vcan0 0000014A#4D5B250362291F2B
(1646670992.807491) vcan0 000001A3#0000000804000000
(1646670992.823200) vcan0 000001D0#2254452B253A3602
(1646670992.823538) vcan0 0000014A#254B34385D362415
(1646670992.823622) vcan0 000001A3#0000000804000000
(1646670992.841353) vcan0 000001D0#3F0236334C2B1011
(1646670992.841873) vcan0 0000014A#440C1A5D332A2B1B
(1646670992.841977) vcan0 000001A3#0000000804000000
(1646670992.855098) vcan0 000001D0#1A5F22111430403E
(1646670992.855239) vcan0 0000014A#30524C443B0E6151
(1646670992.855472) vcan0 000001A3#0000000804000000
(1646670992.873067) vcan0 000001D0#1A102D17434B2C5E
(1646670992.873578) vcan0 0000014A#315A023C0B043814
(1646670992.873782) vcan0 000001A3#0000000804000000
(1646670992.887379) vcan0 000001D0#352326145040610D
(1646670992.887679) vcan0 0000014A#204F3A602C441636
(1646670992.887766) vcan0 000001A3#0000000804000000
(1646670992.903217) vcan0 000001D0#2F0B34614C5C4604
(1646670992.903572) vcan0 0000014A#0C452A0E3D150353
(1646670992.903680) vcan0 000001A3#0000000804000000
(1646670992.921326) vcan0 000001D0#260912044101443A
(1646670992.921731) vcan0 0000014A#62024B611D045C06
(1646670992.921912) vcan0 000001A3#0000000804000000
(1646670992.935129) vcan0 000001D0#5C3E6222154C3338
(1646670992.935434) vcan0 0000014A#3A455317523E3005
(1646670992.935521) vcan0 000001A3#0000000804000000
(1646670992.951245) vcan0 000001D0#47414E3B092D2708
(1646670992.951724) vcan0 0000014A#48220F512B4A0803
(1646670992.951861) vcan0 000001A3#0000000804000000
(1646670992.967310) vcan0 000001D0#32102A42474D010B
(1646670992.967608) vcan0 0000014A#0D47620A20533330
(1646670992.967801) vcan0 000001A3#0000000804000000
(1646670992.983074) vcan0 000001D0#5D380C303E112F37
(1646670992.983323) vcan0 0000014A#410142273049440E
(1646670992.983447) vcan0 000001A3#0000000804000000
(1646670993.001227) vcan0 000001D0#506011265461492C
(1646670993.001578) vcan0 0000014A#3C4C31622C09052F
(1646670993.001691) vcan0 000001A3#0000000804000000
(1646670993.015130) vcan0 000001D0#3B560B37244D624C
(1646670993.015371) vcan0 0000014A#355E2E074F32313D
(1646670993.015488) vcan0 000001A3#0000000804000000
(1646670993.031133) vcan0 000001D0#283D0F1B5F161A4B
(1646670993.031345) vcan0 0000014A#1D5C431A52013D31
(1646670993.031426) vcan0 000001A3#0000000804000000
(1646670993.048830) vcan0 000001D0#4B07103C1A05142B
(1646670993.049083) vcan0 0000014A#51065B453E505E5D
(1646670993.049218) vcan0 000001A3#0000000804000000
(1646670993.049239) vcan0 0000014A#113B414B5218013A
(1646670993.063184) vcan0 000001D0#3A2F4902123D504A
(1646670993.063330) vcan0 0000014A#30494B0161472A3F
(1646670993.063420) vcan0 000001A3#0000000804000000
(1646670993.081716) vcan0 000001D0#465A3E5C1C56245B
(1646670993.082113) vcan0 0000014A#1C3A164A4C5F2336
(1646670993.082207) vcan0 000001A3#0000000804000000
(1646670993.095326) vcan0 000001D0#2707583661255913
(1646670993.095613) vcan0 0000014A#170E3961505E4D23
(1646670993.095691) vcan0 000001A3#0000000804000000
(1646670993.111104) vcan0 000001D0#2B5B0A3710305248
(1646670993.111226) vcan0 0000014A#2E3662314B3B211E
(1646670993.111318) vcan0 000001A3#0000000804000000
(1646670993.129045) vcan0 000001D0#1403093E38621D50
(1646670993.129306) vcan0 0000014A#224E1E40145D2843
(1646670993.129408) vcan0 000001A3#0000000804000000
(1646670993.143130) vcan0 000001D0#1F261A33114B3708
(1646670993.143371) vcan0 0000014A#4654030433343B21
(1646670993.143495) vcan0 000001A3#0000000804000000
(1646670993.159300) vcan0 000001D0#4751031C5B2D0756
(1646670993.161580) vcan0 0000014A#40211E4403220C10
(1646670993.161736) vcan0 000001A3#0000000804000000
(1646670993.175193) vcan0 000001D0#076347350D391236
(1646670993.175427) vcan0 0000014A#52475B480B293057
(1646670993.175501) vcan0 000001A3#0000000804000000
(1646670993.191260) vcan0 000001D0#212F192861454A47
(1646670993.191572) vcan0 0000014A#0619500C4A490742
(1646670993.191716) vcan0 000001A3#0000000804000000
(1646670993.208960) vcan0 000001D0#0C5A5D46105E4013
(1646670993.209211) vcan0 0000014A#5E4A501E44355B37
(1646670993.209274) vcan0 000001A3#0000000804000000
(1646670993.223153) vcan0 000001D0#4A3E235A5C5D4F55
(1646670993.223320) vcan0 0000014A#04261B0A0E2F224C
(1646670993.223410) vcan0 000001A3#0000000804000000
(1646670993.241194) vcan0 000001D0#233F4907022C1205
(1646670993.241470) vcan0 0000014A#524D23165453193F
(1646670993.241584) vcan0 000001A3#0000000804000000
(1646670993.255119) vcan0 000001D0#2A0D165D523D4A1B
(1646670993.255393) vcan0 0000014A#03023460591B0A05
(1646670993.255514) vcan0 000001A3#0000000804000000
(1646670993.271171) vcan0 000001D0#361A2E5442242D12
(1646670993.271441) vcan0 0000014A#5C2C2604544E280F
(1646670993.271560) vcan0 000001A3#0000000804000000
(1646670993.289242) vcan0 000001D0#2C3E470542224420
(1646670993.289477) vcan0 0000014A#502A5A37172F2D14
(1646670993.289532) vcan0 000001A3#0000000804000000
(1646670993.303148) vcan0 000001D0#2C18233E4A061E1A
(1646670993.303419) vcan0 0000014A#39121B5E06213F15
(1646670993.303491) vcan0 000001A3#0000000804000000
(1646670993.320966) vcan0 000001D0#455363591349081A
(1646670993.321316) vcan0 0000014A#0156612059480755
(1646670993.321499) vcan0 000001A3#0000000804000000
(1646670993.335261) vcan0 000001D0#0F34024C2D283B03
(1646670993.335540) vcan0 0000014A#104F29202F395247
(1646670993.335587) vcan0 000001A3#0000000804000000
(1646670993.351278) vcan0 000001D0#1607292823183A40
(1646670993.351555) vcan0 0000014A#37174F3222532B42
(1646670993.351673) vcan0 000001A3#0000000804000000
(1646670993.369300) vcan0 000001D0#135E364A14402D31
(1646670993.369553) vcan0 0000014A#4F5742213C514147
(1646670993.369687) vcan0 000001A3#0000000804000000
(1646670993.382154) vcan0 000001D0#4E2B504C571E025F
(1646670993.382431) vcan0 0000014A#4C45161E4F5E5502
(1646670993.382547) vcan0 000001A3#0000000804000000
(1646670993.400456) vcan0 000001D0#1734530C50303622
(1646670993.400677) vcan0 0000014A#20294A44110C0609
(1646670993.400762) vcan0 000001A3#0000000804000000
(1646670993.414291) vcan0 000001D0#290D2E124D542A62
(1646670993.414432) vcan0 0000014A#383B2B093A471533
(1646670993.414546) vcan0 000001A3#0000000804000000
(1646670993.430115) vcan0 000001D0#345A1E4554490921
(1646670993.430342) vcan0 0000014A#0C050836222D4804
(1646670993.430413) vcan0 000001A3#0000000804000000
(1646670993.447594) vcan0 000001D0#1A0D632060525510
(1646670993.447720) vcan0 0000014A#1B11040C0106095F
(1646670993.447766) vcan0 000001A3#0000000804000000
(1646670993.462174) vcan0 000001D0#5663115C585F0816
(1646670993.462448) vcan0 0000014A#1531570A4914395C
(1646670993.462567) vcan0 000001A3#0000000804000000
(1646670993.478600) vcan0 000001D0#3D57081D5B403616
(1646670993.479081) vcan0 0000014A#3B10394A5A123A50
(1646670993.479229) vcan0 000001A3#0000000804000000
(1646670993.494274) vcan0 000001D0#0C2C4C35313A143C
(1646670993.494604) vcan0 0000014A#3B502D291A4A3A16
(1646670993.494891) vcan0 000001A3#0000000804000000
(1646670993.510147) vcan0 000001D0#0A3C0B1D2F216061
(1646670993.510407) vcan0 0000014A#3B4A47230D4F0B15
(1646670993.510528) vcan0 000001A3#0000000804000000
(1646670993.528454) vcan0 000001D0#290D18590E4D0148
(1646670993.528770) vcan0 0000014A#4E43095A16475D07
(1646670993.528837) vcan0 000001A3#0000000804000000
(1646670993.542231) vcan0 000001D0#1202210961570F5E
(1646670993.542509) vcan0 0000014A#0142564518392009
(1646670993.542580) vcan0 000001A3#0000000804000000
(1646670993.560203) vcan0 000001D0#3A47053D101F5146
(1646670993.560706) vcan0 0000014A#141230400429225F
(1646670993.560823) vcan0 000001A3#0000000804000000
(1646670993.574338) vcan0 000001D0#5A0E343F01514F28
(1646670993.574476) vcan0 0000014A#483542333D225129
(1646670993.574621) vcan0 000001A3#0000000804000000
(1646670993.575022) vcan0 000001A3#1D54512E0D09303D
(1646670993.590168) vcan0 000001D0#5F2C090E574D1810
(1646670993.590354) vcan0 0000014A#624B423C2E462826
(1646670993.590438) vcan0 000001A3#0000000804000000
(1646670993.607936) vcan0 000001D0#2B3E5106333C633F
(1646670993.608120) vcan0 0000014A#5B25304B27032C1B
(1646670993.608200) vcan0 000001A3#0000000804000000
(1646670993.623198) vcan0 000001D0#1E4704542141285D
(1646670993.623334) vcan0 0000014A#5E171A20230B543F
(1646670993.623450) vcan0 000001A3#0000000804000000
(1646670993.639602) vcan0 000001D0#59512B30183E1A5C
(1646670993.639767) vcan0 0000014A#441A2F252B3A5842
(1646670993.642044) vcan0 000001A3#0000000804000000
(1646670993.655272) vcan0 000001D0#013A6304495B5954
(1646670993.655399) vcan0 0000014A#4C2D0239595E612A
(1646670993.655502) vcan0 000001A3#0000000804000000
(1646670993.671167) vcan0 000001D0#0421615C3349403E
(1646670993.671324) vcan0 0000014A#343A0828401C2F2E
(1646670993.671429) vcan0 000001A3#0000000804000000
(1646670993.689103) vcan0 000001D0#323809183F391A46
(1646670993.689536) vcan0 0000014A#074608052E0C0D03
(1646670993.689720) vcan0 000001A3#0000000804000000
(1646670993.703197) vcan0 000001D0#0925312A38045F1B
(1646670993.703388) vcan0 0000014A#363D2F4137505559
(1646670993.703500) vcan0 000001A3#0000000804000000
(1646670993.719527) vcan0 000001D0#0F1E5E015A424152
(1646670993.719856) vcan0 0000014A#3E415C2C472B4E4B
(1646670993.720019) vcan0 000001A3#0000000804000000
(1646670993.735301) vcan0 000001D0#5B610B502F3D3841
(1646670993.735540) vcan0 0000014A#3856113349063015
(1646670993.735592) vcan0 000001A3#0000000804000000
(1646670993.751150) vcan0 000001D0#18191A3B382A420D
(1646670993.751387) vcan0 0000014A#52370B4E5B261750
(1646670993.751501) vcan0 000001A3#0000000804000000
(1646670993.768970) vcan0 000001D0#134B11365703161F
(1646670993.769284) vcan0 0000014A#5E2D0D5637442234
(1646670993.769408) vcan0 000001A3#0000000804000000
(1646670993.783131) vcan0 000001D0#2E3D23282D0D015D
(1646670993.783402) vcan0 0000014A#22612B4B4E282917
(1646670993.783536) vcan0 000001A3#0000000804000000
(1646670993.799566) vcan0 000001D0#2933515F4F541435
(1646670993.799759) vcan0 0000014A#0A604E0659503921
(1646670993.799810) vcan0 000001A3#0000000804000000
(1646670993.815319) vcan0 000001D0#48170A290B18355F
(1646670993.815481) vcan0 0000014A#43583D35382C532B
(1646670993.815565) vcan0 000001A3#0000000804000000
(1646670993.831156) vcan0 000001D0#025D224427203E25
(1646670993.831381) vcan0 0000014A#0A4A5E16561C4E11
(1646670993.831482) vcan0 000001A3#0000000804000000
(1646670993.849159) vcan0 000001D0#2F4F161A042D2A2B
(1646670993.849442) vcan0 0000014A#60581F614D31271A
(1646670993.849576) vcan0 000001A3#0000000403000000
(1646670993.863198) vcan0 000001D0#09024B3D2B0C2401
(1646670993.863426) vcan0 0000014A#475E572429304407
(1646670993.863493) vcan0 000001A3#0000000403000000
(1646670993.879203) vcan0 000001D0#3B03302943072160
(1646670993.879474) vcan0 0000014A#470E465C453D5F2E
(1646670993.879596) vcan0 000001A3#0000000403000000
(1646670993.897731) vcan0 000001D0#32514D1A54560F60
(1646670993.898041) vcan0 0000014A#52534E600F091F07
(1646670993.898237) vcan0 000001A3#0000000403000000
(1646670993.911191) vcan0 000001D0#25383D4C0723422E
(1646670993.911351) vcan0 0000014A#3B2B012E56440B48
(1646670993.911404) vcan0 000001A3#0000000403000000
(1646670993.927166) vcan0 000001D0#1D325E0D06083858
(1646670993.929320) vcan0 0000014A#1A2F17103C552102
(1646670993.929403) vcan0 000001A3#0000000403000000
(1646670993.943194) vcan0 000001D0#4232103D5A381744
(1646670993.943549) vcan0 0000014A#4A3A04581F38262A
(1646670993.943640) vcan0 000001A3#0000000403000000
(1646670993.959220) vcan0 000001D0#1C264F2406252038
(1646670993.959477) vcan0 0000014A#01504C6051155617
(1646670993.959561) vcan0 000001A3#0000000403000000
(1646670993.977564) vcan0 000001D0#445C020C14052E08
(1646670993.977834) vcan0 0000014A#2A195F4246044526
(1646670993.977970) vcan0 000001A3#0000000403000000
(1646670993.991165) vcan0 000001D0#5344045107482C13
(1646670993.991393) vcan0 0000014A#385241371E550242
(1646670993.991483) vcan0 000001A3#0000000403000000
(1646670994.007279) vcan0 000001D0#1E0A4420100C2556
(1646670994.007594) vcan0 0000014A#555A25100A522640
(1646670994.007816) vcan0 000001A3#0000000403000000
(1646670994.023346) vcan0 000001D0#6203191A08484730
(1646670994.023709) vcan0 0000014A#5F26241636145945
(1646670994.023793) vcan0 000001A3#0000000403000000
(1646670994.039185) vcan0 000001D0#2133512A3407220A
(1646670994.039437) vcan0 0000014A#271D4A4B58074247
(1646670994.039557) vcan0 000001A3#0000000403000000
(1646670994.057163) vcan0 000001D0#2D55021C57586030
(1646670994.057602) vcan0 0000014A#12463E3625425814
(1646670994.057701) vcan0 000001A3#0000000403000000
(1646670994.071624) vcan0 000001D0#45281363394C2E0A
(1646670994.071773) vcan0 0000014A#2E621F0F5D044A25
(1646670994.071819) vcan0 000001A3#0000000403000000
(1646670994.087170) vcan0 000001D0#5349475A4655333E
(1646670994.087311) vcan0 0000014A#420D3D1D3528074E
(1646670994.087356) vcan0 000001A3#0000000403000000
(1646670994.104727) vcan0 000001D0#4F5B121D180B4715
(1646670994.104914) vcan0 0000014A#08312723181A3357
(1646670994.104992) vcan0 000001A3#0000000403000000
(1646670994.119231) vcan0 000001D0#14130B0539206244
(1646670994.119452) vcan0 000001D0#224C323A45180925
(1646670994.119486) vcan0 0000014A#605B2F1F25590549
(1646670994.119552) vcan0 000001A3#0000000403000000
(1646670994.135675) vcan0 000001D0#5C4A43244F172348
(1646670994.138239) vcan0 0000014A#2B2C16184D355647
(1646670994.138346) vcan0 000001A3#0000000403000000
(1646670994.151294) vcan0 000001D0#5558176207162550
(1646670994.151427) vcan0 0000014A#37263D471544515B
(1646670994.151473) vcan0 000001A3#0000000403000000
(1646670994.167172) vcan0 000001D0#621A5E35222E4538
(1646670994.167329) vcan0 0000014A#4F274E533B625C1E
(1646670994.167375) vcan0 000001A3#0000000403000000
(1646670994.184886) vcan0 000001D0#5813055E5A523839
(1646670994.185012) vcan0 0000014A#1829211B2530473A
(1646670994.185058) vcan0 000001A3#0000000403000000
(1646670994.199154) vcan0 000001D0#53442B6116295B33
(1646670994.199402) vcan0 0000014A#33542D4F1A472853
(1646670994.199502) vcan0 000001A3#0000000403000000
(1646670994.215389) vcan0 000001D0#2D385E1605201D26
(1646670994.215674) vcan0 0000014A#211927533D330302
(1646670994.215745) vcan0 000001A3#0000000403000000
(1646670994.231339) vcan0 000001D0#4110061D155C3444
(1646670994.231621) vcan0 0000014A#324443211B1E603D
(1646670994.231698) vcan0 000001A3#0000000403000000
(1646670994.247304) vcan0 000001D0#4601125E4D1C580F
(1646670994.247562) vcan0 0000014A#05174513314C3F01
(1646670994.247634) vcan0 000001A3#0000000403000000
(1646670994.265451) vcan0 000001D0#0D0E535C03435E59
(1646670994.265759) vcan0 0000014A#60325E3C06453308
(1646670994.265886) vcan0 000001A3#0000000403000000
(1646670994.279192) vcan0 000001D0#1558540701066102
(1646670994.279456) vcan0 0000014A#5A04143D053E5203
(1646670994.279572) vcan0 000001A3#0000000403000000
(1646670994.295225) vcan0 000001D0#08584814361F5B56
(1646670994.295518) vcan0 0000014A#344B3F1A575A224A
(1646670994.295594) vcan0 000001A3#0000000403000000
(1646670994.312908) vcan0 000001D0#3A0354404F064415
(1646670994.313164) vcan0 0000014A#5418111F39382240
(1646670994.313301) vcan0 000001A3#0000000403000000
(1646670994.327281) vcan0 000001D0#0603233921245263
(1646670994.327552) vcan0 0000014A#224E0954612E1834
(1646670994.327612) vcan0 000001A3#0000000403000000
(1646670994.345513) vcan0 000001D0#114A4F262101385C
(1646670994.345892) vcan0 0000014A#100E584F4D24110B
(1646670994.346059) vcan0 000001A3#0000000403000000
(1646670994.358221) vcan0 000001D0#52593B12451D2F4D
(1646670994.358544) vcan0 0000014A#4D62540E5D06590C
(1646670994.358616) vcan0 000001A3#0000000403000000
(1646670994.374206) vcan0 000001D0#614121205653253F
(1646670994.374446) vcan0 0000014A#3C3B192F28241309
(1646670994.374551) vcan0 000001A3#0000000403000000
(1646670994.391976) vcan0 000001D0#3026183D37480B54
(1646670994.392356) vcan0 0000014A#421C051A24622053
(1646670994.392515) vcan0 000001A3#0000000804000000
(1646670994.406204) vcan0 000001D0#093B111853593903
(1646670994.406460) vcan0 0000014A#5032202153264C1E
(1646670994.406576) vcan0 000001A3#0000000804000000
(1646670994.425367) vcan0 000001D0#213B32591E053549
(1646670994.425558) vcan0 0000014A#3F494B1935612305
(1646670994.425692) vcan0 000001A3#0000000804000000
(1646670994.438329) vcan0 000001D0#5F24114C3D1C4531
(1646670994.438550) vcan0 0000014A#1A0E075E5C46172A
(1646670994.438637) vcan0 000001A3#0000000804000000
(1646670994.454201) vcan0 000001D0#5A100C591521414A
(1646670994.454459) vcan0 0000014A#475F0B161A310A26
(1646670994.454527) vcan0 000001A3#0000000804000000
(1646670994.473152) vcan0 000001D0#4A5A493D363F302C
(1646670994.473527) vcan0 0000014A#5B1F496009634443
(1646670994.473711) vcan0 000001A3#0000000804000000
(1646670994.486205) vcan0 000001D0#42444E294D025657
(1646670994.486385) vcan0 0000014A#4C2A2F49552E1D19
(1646670994.486459) vcan0 000001A3#0000000804000000
(1646670994.502612) vcan0 000001D0#17635D2405511B11
(1646670994.503372) vcan0 0000014A#5E47435F1E2D3522
(1646670994.503576) vcan0 000001A3#0000000804000000
(1646670994.518406) vcan0 000001D0#0B0C01022A5D0F04
(1646670994.518556) vcan0 0000014A#342A3C241861630D
(1646670994.518665) vcan0 000001A3#0000000804000000
(1646670994.534166) vcan0 000001D0#07440C2E3B0A3D0B
(1646670994.534401) vcan0 0000014A#3D4A083163350248
(1646670994.534466) vcan0 000001A3#0000000804000000
(1646670994.552755) vcan0 000001D0#1A220A0D15365C2C
(1646670994.553148) vcan0 0000014A#620C08132604060E
(1646670994.553359) vcan0 000001A3#0000000804000000
(1646670994.566200) vcan0 000001D0#0F624A08275A4B18
(1646670994.566579) vcan0 0000014A#4F4B1C1302482B56
(1646670994.566649) vcan0 000001A3#0000000804000000
(1646670994.582301) vcan0 000001D0#4203441F2E14344A
(1646670994.582592) vcan0 0000014A#153A504107041A09
(1646670994.582675) vcan0 000001A3#0000000804000000
(1646670994.599891) vcan0 000001D0#1F550508305A3F29
(1646670994.600017) vcan0 0000014A#52192349552A3913
(1646670994.600062) vcan0 000001A3#0000000804000000
(1646670994.614228) vcan0 000001D0#23352A4A4D0D3A63
(1646670994.614479) vcan0 0000014A#4831183060521B23
(1646670994.614547) vcan0 000001A3#0000000804000000
(1646670994.631423) vcan0 000001D0#205C4B3A5527390C
(1646670994.631726) vcan0 0000014A#07253626195C572E
(1646670994.631777) vcan0 000001A3#0000000804000000
(1646670994.647326) vcan0 000001D0#0E13590F19586210
(1646670994.647536) vcan0 0000014A#5C102C0D542A3E3A
(1646670994.647593) vcan0 000001A3#0000000804000000
(1646670994.647630) vcan0 0000014A#53291A5826434F1B
(1646670994.663185) vcan0 000001D0#5A1B012C5919124C
(1646670994.663385) vcan0 0000014A#32104C2C090D1407
(1646670994.663433) vcan0 000001A3#0000000804000000
(1646670994.681136) vcan0 000001D0#23044A512759161D
(1646670994.681509) vcan0 0000014A#2A4E2F5D16331C3A
(1646670994.681599) vcan0 000001A3#0000000804000000
(1646670994.695234) vcan0 000001D0#1B06323416311E1A
(1646670994.695366) vcan0 0000014A#6028465E17060963
(1646670994.695415) vcan0 000001A3#0000000804000000
(1646670994.711394) vcan0 000001D0#6055514C22354A5F
(1646670994.711725) vcan0 0000014A#0F5226304C573E29
(1646670994.711806) vcan0 000001A3#0000000804000000
(1646670994.727484) vcan0 000001D0#385B150357244111
(1646670994.727693) vcan0 0000014A#3B5B43552012130E
(1646670994.727765) vcan0 000001A3#0000000804000000
(1646670994.743168) vcan0 000001D0#361020342A0F1619
(1646670994.743498) vcan0 0000014A#3024623F20281538
(1646670994.743589) vcan0 000001A3#0000000804000000
(1646670994.761773) vcan0 000001D0#04433555031F2A20
(1646670994.762357) vcan0 0000014A#3855284E11471507
(1646670994.762579) vcan0 000001A3#0000000804000000
(1646670994.775343) vcan0 000001D0#5458571220040906
(1646670994.775496) vcan0 0000014A#311634274C4F402D
(1646670994.775613) vcan0 000001A3#0000000804000000
(1646670994.791215) vcan0 000001D0#6312530E3F5F0503
(1646670994.791430) vcan0 0000014A#0602130B40632C2E
(1646670994.791533) vcan0 000001A3#0000000804000000
(1646670994.809192) vcan0 000001D0#4E5759514C2F2E15
(1646670994.809553) vcan0 0000014A#37242C28492D3134
(1646670994.809744) vcan0 000001A3#0000000804000000
(1646670994.823321) vcan0 000001D0#2606174008213E37
(1646670994.823597) vcan0 0000014A#0D253B3D38043942
(1646670994.823705) vcan0 000001A3#0000000804000000
(1646670994.839418) vcan0 000001D0#5C3C441723612D56
(1646670994.839814) vcan0 0000014A#3A39561836052B1A
(1646670994.840000) vcan0 000001A3#0000000804000000
(1646670994.855377) vcan0 000001D0#1F336219035A495E
(1646670994.855648) vcan0 0000014A#4957485646091C59
(1646670994.855731) vcan0 000001A3#0000000804000000
(1646670994.871181) vcan0 000001D0#25143C1334572F61
(1646670994.871420) vcan0 0000014A#133550520D2A4330
(1646670994.871508) vcan0 000001A3#0000000804000000
(1646670994.889317) vcan0 000001D0#5E0A565127225707
(1646670994.889741) vcan0 0000014A#444E08610233200A
(1646670994.889867) vcan0 000001A3#0000000804000000
(1646670994.903194) vcan0 000001D0#2A633A4B5A49015C
(1646670994.903447) vcan0 0000014A#560F464B0E515F01
(1646670994.903568) vcan0 000001A3#0000000804000000
(1646670994.919393) vcan0 000001D0#1E5F323C0F52384A
(1646670994.920121) vcan0 0000014A#59575649164C522A
(1646670994.920555) vcan0 000001A3#0000000804000000
(1646670994.935258) vcan0 000001D0#1641243A17525C2A
(1646670994.935675) vcan0 0000014A#013B5B2054593424
(1646670994.935846) vcan0 000001A3#0000000804000000
(1646670994.951180) vcan0 000001D0#2E16354F3C1D0C0F
(1646670994.951393) vcan0 0000014A#046241560D023A4A
(1646670994.951519) vcan0 000001A3#0000000804000000
(1646670994.967401) vcan0 000001D0#3316251945015335
(1646670994.969815) vcan0 0000014A#1C3F604632545A1D
(1646670994.970225) vcan0 000001A3#0000000804000000
(1646670994.983185) vcan0 000001D0#503257462D380C45
(1646670994.983316) vcan0 0000014A#392955581D1B2C63
(1646670994.983512) vcan0 000001A3#0000000804000000
(1646670994.999219) vcan0 000001D0#2F3C523553092425
(1646670994.999344) vcan0 0000014A#1E5D2B600C57080E
(1646670994.999446) vcan0 000001A3#0000000804000000
(1646670995.016952) vcan0 000001D0#101419355B213A55
(1646670995.017218) vcan0 0000014A#593F55261001442E
(1646670995.017299) vcan0 000001A3#0000000804000000
(1646670995.031184) vcan0 000001D0#4A0D014131165648
(1646670995.031443) vcan0 0000014A#5F114C144F415121
(1646670995.031537) vcan0 000001A3#0000000804000000
(1646670995.049127) vcan0 000001D0#5C0E4D334F14300F
(1646670995.049297) vcan0 0000014A#3E3B124518444F35
(1646670995.049420) vcan0 000001A3#0000000804000000
(1646670995.063194) vcan0 000001D0#1301232D08343C04
(1646670995.063490) vcan0 0000014A#120D3C5D14043D03
(1646670995.063560) vcan0 000001A3#0000000804000000
(1646670995.079202) vcan0 000001D0#2B260A014E235F42
(1646670995.079445) vcan0 0000014A#0545483B552F1611
(1646670995.079566) vcan0 000001A3#0000000804000000
(1646670995.097258) vcan0 000001D0#1F5E1222362C0218
(1646670995.097514) vcan0 0000014A#542451233E331021
(1646670995.097666) vcan0 000001A3#0000000804000000
(1646670995.111218) vcan0 000001D0#13013D513C345240
(1646670995.111346) vcan0 0000014A#60585A6238450D26
(1646670995.111402) vcan0 000001A3#0000000804000000
(1646670995.129222) vcan0 000001D0#51344A352E3F2B0E
(1646670995.129543) vcan0 0000014A#1F413D405A571E2A
(1646670995.129695) vcan0 000001A3#0000000804000000
(1646670995.143189) vcan0 000001D0#3F252A33145B5308
(1646670995.143513) vcan0 0000014A#1B57274210380516
(1646670995.143569) vcan0 000001A3#0000000804000000
(1646670995.159194) vcan0 000001D0#144655331A0F4D31
(1646670995.159409) vcan0 0000014A#6362096012440822
(1646670995.159512) vcan0 000001A3#0000000804000000
(1646670995.177197) vcan0 000001D0#616019461C3A061A
(1646670995.177475) vcan0 0000014A#362258173E3A450D
(1646670995.177589) vcan0 000001A3#0000000804000000
(1646670995.177719) vcan0 000001A3#16335C2D0A11605D
(1646670995.191323) vcan0 000001D0#1B2F4739342B6209
(1646670995.191595) vcan0 0000014A#07300D0F62482D44
(1646670995.191667) vcan0 000001A3#0000000804000000
(1646670995.208994) vcan0 000001D0#2701130612602436
(1646670995.209481) vcan0 0000014A#595A011F10560A0F
(1646670995.209615) vcan0 000001A3#0000000804000000
(1646670995.223215) vcan0 000001D0#3E28122960131644
(1646670995.223541) vcan0 0000014A#254D501A10314233
(1646670995.223637) vcan0 000001A3#0000000804000000
(1646670995.239248) vcan0 000001D0#522F2E034302075B
(1646670995.239583) vcan0 0000014A#2402094C1942270B
(1646670995.239682) vcan0 000001A3#0000000804000000
(1646670995.255503) vcan0 000001D0#314136625421590B
(1646670995.255750) vcan0 0000014A#3211385657551D37
(1646670995.255808) vcan0 000001A3#0000000804000000
(1646670995.271201) vcan0 000001D0#18061A1F633F1E2F
(1646670995.271469) vcan0 0000014A#554D605734183031
(1646670995.271588) vcan0 000001A3#0000000804000000
(1646670995.289643) vcan0 000001D0#620B4A602A46244D
(1646670995.290089) vcan0 0000014A#16083D041C3F392F
(1646670995.290246) vcan0 000001A3#0000000804000000
(1646670995.303243) vcan0 000001D0#2A1F593C46194130
(1646670995.303517) vcan0 0000014A#49251A4D2B5E101F
(1646670995.303593) vcan0 000001A3#0000000804000000
(1646670995.319227) vcan0 000001D0#4137360E102A3960
(1646670995.319516) vcan0 0000014A#402D611D014F4338
(1646670995.319644) vcan0 000001A3#0000000804000000
(1646670995.338232) vcan0 000001D0#113A176225261345
(1646670995.338454) vcan0 0000014A#63521B17442E4B4E
(1646670995.338534) vcan0 000001A3#0000000804000000
(1646670995.351273) vcan0 000001D0#4F0718563B16031D
(1646670995.351520) vcan0 0000014A#0C5F475143483C3D
(1646670995.351582) vcan0 000001A3#0000000804000000
(1646670995.368746) vcan0 000001D0#15173A092B463349
(1646670995.369180) vcan0 0000014A#4F0C2B5205243D5F
(1646670995.369331) vcan0 000001A3#0000000804000000
(1646670995.382196) vcan0 000001D0#304B04355407063B
(1646670995.382597) vcan0 0000014A#1529411B13534F0E
(1646670995.382848) vcan0 000001A3#0000000804000000
(1646670995.398253) vcan0 000001D0#230F5219264A412D
(1646670995.398562) vcan0 0000014A#2D60265008623C0C
(1646670995.398734) vcan0 000001A3#0000000804000000
(1646670995.416004) vcan0 000001D0#375D1029271D1C49
(1646670995.417134) vcan0 0000014A#3A240D04493B3831
(1646670995.417307) vcan0 000001A3#0000000804000000
(1646670995.430255) vcan0 000001D0#5005383D4D2A041B
(1646670995.430526) vcan0 0000014A#371259015603064F
(1646670995.430667) vcan0 000001A3#0000000804000000
(1646670995.446935) vcan0 000001D0#4817242B35154F5E
(1646670995.450271) vcan0 0000014A#4A385403582F195C
(1646670995.450385) vcan0 000001A3#0000000804000000
(1646670995.462511) vcan0 000001D0#32173E34581B3525
(1646670995.462716) vcan0 0000014A#2618511C48282913
(1646670995.462798) vcan0 000001A3#0000000804000000
(1646670995.478229) vcan0 000001D0#1832462D3E134D59
(1646670995.478477) vcan0 0000014A#46115B4304092235
(1646670995.478607) vcan0 000001A3#0000000804000000
(1646670995.496022) vcan0 000001D0#442E081A5956152F
(1646670995.496182) vcan0 0000014A#323F285940454836
(1646670995.496540) vcan0 000001A3#0000000804000000
(1646670995.510225) vcan0 000001D0#0E11355E390C4460
(1646670995.510373) vcan0 0000014A#272B544D343A413C
(1646670995.510478) vcan0 000001A3#0000000804000000
(1646670995.526611) vcan0 000001D0#55575E2154473235
(1646670995.527073) vcan0 0000014A#04022E6247535119
(1646670995.527387) vcan0 000001A3#0000000804000000
(1646670995.542367) vcan0 000001D0#39145E554F1A0206
(1646670995.542499) vcan0 0000014A#0B13292540245726
(1646670995.542620) vcan0 000001A3#0000000804000000
(1646670995.558253) vcan0 000001D0#424E212F3F545206
(1646670995.558380) vcan0 0000014A#5E4C0142374A4E5A
(1646670995.558514) vcan0 000001A3#0000000804000000
(1646670995.576130) vcan0 000001D0#3718473B0D150645
(1646670995.576614) vcan0 0000014A#3024635E13071E2A
(1646670995.576726) vcan0 000001A3#0000000804000000
(1646670995.590334) vcan0 000001D0#5B393A593B194B30
(1646670995.590637) vcan0 0000014A#3E0233111C500F48
(1646670995.590717) vcan0 000001A3#0000000804000000
(1646670995.606483) vcan0 000001D0#3E62235A245F4E1F
(1646670995.606834) vcan0 0000014A#3557563C304F6311
(1646670995.607142) vcan0 000001A3#0000000804000000
(1646670995.623351) vcan0 000001D0#2540482C50582D28
(1646670995.623562) vcan0 0000014A#373F0A43600D3606
(1646670995.623642) vcan0 000001A3#0000000804000000
(1646670995.639199) vcan0 000001D0#5047462B55202863
(1646670995.639401) vcan0 0000014A#28311C0508301151
(1646670995.639474) vcan0 000001A3#0000000804000000
(1646670995.657441) vcan0 000001D0#164E3F20271A1E56
(1646670995.657641) vcan0 0000014A#49422F22080E4F38
(1646670995.657721) vcan0 000001A3#0000000804000000
(1646670995.671254) vcan0 000001D0#1D120C60303A1951
(1646670995.671489) vcan0 0000014A#0F1163574862263A
(1646670995.671543) vcan0 000001A3#0000000804000000
(1646670995.689318) vcan0 000001D0#285E350449224557
(1646670995.689859) vcan0 0000014A#623825242E422708
(1646670995.690042) vcan0 000001A3#0000000804000000
(1646670995.703350) vcan0 000001D0#3F232C4614470815
(1646670995.703582) vcan0 0000014A#292C135C5F4E2418
(1646670995.703637) vcan0 000001A3#0000000804000000
(1646670995.719470) vcan0 000001D0#0B5031074D3D3825
(1646670995.719645) vcan0 0000014A#2513422F0B202E55
(1646670995.719648) vcan0 000001D0#384A4847511E0C43
(1646670995.719690) vcan0 000001A3#0000000804000000
(1646670995.737095) vcan0 000001D0#6127280C0634075D
(1646670995.737508) vcan0 0000014A#04440C382C202748
(1646670995.737600) vcan0 000001A3#0000000804000000
(1646670995.751201) vcan0 000001D0#264E041B330F4445
(1646670995.751456) vcan0 0000014A#1A4C3A4F2F08364A
(1646670995.751539) vcan0 000001A3#0000000804000000
(1646670995.769111) vcan0 000001D0#5336190944045E1B
(1646670995.769398) vcan0 0000014A#4A210D101E342E3F
(1646670995.769483) vcan0 000001A3#0000000804000000
(1646670995.783473) vcan0 000001D0#074702163D031540
(1646670995.783705) vcan0 0000014A#21420A5643602C28
(1646670995.783800) vcan0 000001A3#0000000804000000
(1646670995.799228) vcan0 000001D0#1A622E0C0F47600B
(1646670995.799512) vcan0 0000014A#34295543264A5103
(1646670995.799611) vcan0 000001A3#0000000804000000
(1646670995.817532) vcan0 000001D0#3C06555C1C2A0E44
(1646670995.817832) vcan0 0000014A#0E5D353034404158
(1646670995.817926) vcan0 000001A3#0000000804000000
(1646670995.831243) vcan0 000001D0#0F2F4C5B1A3B4331
(1646670995.831481) vcan0 0000014A#2C250E2258344A06
(1646670995.831540) vcan0 000001A3#0000000804000000
(1646670995.849806) vcan0 000001D0#2E3031252D39325A
(1646670995.850342) vcan0 0000014A#505245303504150C
(1646670995.850449) vcan0 000001A3#0000000804000000
(1646670995.863234) vcan0 000001D0#5D2D24380605453A
(1646670995.863363) vcan0 0000014A#034F1C07473E2225
(1646670995.863503) vcan0 000001A3#0000000804000000
(1646670995.879229) vcan0 000001D0#193154515B550E38
(1646670995.879501) vcan0 0000014A#1D2B340F27155F5C
(1646670995.879600) vcan0 000001A3#0000000804000000
(1646670995.896926) vcan0 000001D0#543D1A2951082E4D
(1646670995.897188) vcan0 0000014A#363F0D3D374A235E
(1646670995.897322) vcan0 000001A3#0000000403000000
(1646670995.911206) vcan0 000001D0#5C4F155046221A26
(1646670995.911330) vcan0 0000014A#0B3B3560331C192C
(1646670995.911478) vcan0 000001A3#0000000403000000
(1646670995.929562) vcan0 000001D0#04380B1F09532845
(1646670995.929896) vcan0 0000014A#630C154330240A31
(1646670995.929955) vcan0 000001A3#0000000403000000
(1646670995.943249) vcan0 000001D0#19292A0A2438501D
(1646670995.943476) vcan0 0000014A#0E574A2A2E405622
(1646670995.943590) vcan0 000001A3#0000000403000000
(1646670995.959601) vcan0 000001D0#5C3D0D472D250F2C
(1646670995.960102) vcan0 0000014A#635E515754095224
(1646670995.960192) vcan0 000001A3#0000000403000000
(1646670995.975368) vcan0 000001D0#421E221338161833
(1646670995.975541) vcan0 0000014A#45124E3D3457223F
(1646670995.975618) vcan0 000001A3#0000000403000000
(1646670995.991226) vcan0 000001D0#5E492008414A4D57
(1646670995.991469) vcan0 0000014A#192F392D132A1B1E
(1646670995.991591) vcan0 000001A3#0000000403000000
(1646670996.009190) vcan0 000001D0#611F5E1C49374744
(1646670996.009521) vcan0 0000014A#4A2F42404C3F2108
(1646670996.009657) vcan0 000001A3#0000000403000000
(1646670996.023434) vcan0 000001D0#1A22180F2D1B5410
(1646670996.023663) vcan0 0000014A#04323F431F2A4938
(1646670996.023712) vcan0 000001A3#0000000403000000
(1646670996.039578) vcan0 000001D0#4B1406053C160F3D
(1646670996.039828) vcan0 0000014A#2D62105E080C411E
(1646670996.042383) vcan0 000001A3#0000000403000000
(1646670996.055431) vcan0 000001D0#611D193D26332B31
(1646670996.055565) vcan0 0000014A#04585A62515B0A0B
(1646670996.055611) vcan0 000001A3#0000000403000000
(1646670996.071246) vcan0 000001D0#5C4140581B44523A
(1646670996.071458) vcan0 0000014A#31112C2733213F0C
(1646670996.071538) vcan0 000001A3#0000000403000000
(1646670996.089183) vcan0 000001D0#5D433F383A4B2A21
(1646670996.089586) vcan0 0000014A#5B6240102D54511B
(1646670996.089764) vcan0 000001A3#0000000403000000
(1646670996.103409) vcan0 000001D0#45333A1014090B1E
(1646670996.103739) vcan0 0000014A#2C04272E1D1E0F23
(1646670996.103825) vcan0 000001A3#0000000403000000
(1646670996.119788) vcan0 000001D0#3C234326035B5D41
(1646670996.119974) vcan0 0000014A#07561A2449362E5B
(1646670996.120067) vcan0 000001A3#0000000403000000
(1646670996.135327) vcan0 000001D0#4E572E1704610B55
(1646670996.135572) vcan0 0000014A#273916461B20364D
(1646670996.135672) vcan0 000001A3#0000000403000000
(1646670996.151259) vcan0 000001D0#213C4B265E35140F
(1646670996.151515) vcan0 0000014A#1A632055602F4A07
(1646670996.151615) vcan0 000001A3#0000000403000000
(1646670996.169313) vcan0 000001D0#6158224037332802
(1646670996.169671) vcan0 0000014A#0234272F071C2601
(1646670996.169827) vcan0 000001A3#0000000403000000
(1646670996.183411) vcan0 000001D0#144510063A3C5C2A
(1646670996.183748) vcan0 0000014A#36222B4F1E162747
(1646670996.183906) vcan0 000001A3#0000000403000000
(1646670996.199424) vcan0 000001D0#60314D6309111E4C
(1646670996.199907) vcan0 0000014A#4A1835380A240444
(1646670996.199987) vcan0 000001A3#0000000403000000
(1646670996.215568) vcan0 000001D0#341603020E2D0442
(1646670996.215940) vcan0 0000014A#390B4F2F54124146
(1646670996.216133) vcan0 000001A3#0000000403000000
(1646670996.231280) vcan0 000001D0#22473D0855323C0B
(1646670996.231527) vcan0 0000014A#46133D0434612328
(1646670996.231637) vcan0 000001A3#0000000403000000
(1646670996.249622) vcan0 000001D0#501D315D07415927
(1646670996.249763) vcan0 0000014A#17220310485D1105
(1646670996.249810) vcan0 000001A3#0000000403000000
(1646670996.249878) vcan0 0000014A#163D49244F3E5011
(1646670996.263255) vcan0 000001D0#33205D150A081242
(1646670996.263484) vcan0 0000014A#184A401B29556053
(1646670996.263536) vcan0 000001A3#0000000403000000
(1646670996.280996) vcan0 000001D0#574A4806630A4623
(1646670996.281461) vcan0 0000014A#04543212623E501F
(1646670996.281650) vcan0 000001A3#0000000403000000
(1646670996.295344) vcan0 000001D0#2D374F22171F491E
(1646670996.295471) vcan0 0000014A#313A4507515C4925
(1646670996.295578) vcan0 000001A3#0000000403000000
(1646670996.311328) vcan0 000001D0#502127295D085443
(1646670996.311581) vcan0 0000014A#2D104D576317264B
(1646670996.311651) vcan0 000001A3#0000000403000000
(1646670996.328991) vcan0 000001D0#0817633930182A20
(1646670996.329186) vcan0 0000014A#3336440545173120
(1646670996.329263) vcan0 000001A3#0000000403000000
(1646670996.343321) vcan0 000001D0#293E0310360B0221
(1646670996.343571) vcan0 0000014A#2738125349035B39
(1646670996.343646) vcan0 000001A3#0000000403000000
(1646670996.361197) vcan0 000001D0#13563E250D2A584B
(1646670996.361616) vcan0 0000014A#083F58345618114C
(1646670996.361755) vcan0 000001A3#0000000403000000
(1646670996.374827) vcan0 000001D0#4F13360F482F0C14
(1646670996.375014) vcan0 0000014A#4A1A5E3A4D471430
(1646670996.375135) vcan0 000001A3#0000000804000000
(1646670996.390226) vcan0 000001D0#0D524F03285A6250
(1646670996.390467) vcan0 0000014A#385061211E4F5741
(1646670996.390543) vcan0 000001A3#0000000804000000
(1646670996.406618) vcan0 000001D0#614E32632D600657
(1646670996.406847) vcan0 0000014A#21444F221E2E311B
(1646670996.406959) vcan0 000001A3#0000000804000000
(1646670996.422250) vcan0 000001D0#235F3932223B3604
(1646670996.422525) vcan0 0000014A#24463D3F564A4951
(1646670996.422678) vcan0 000001A3#0000000804000000
(1646670996.439901) vcan0 000001D0#5916090C3F27031A
(1646670996.440054) vcan0 0000014A#543346131D5F0E62
(1646670996.440102) vcan0 000001A3#0000000804000000
(1646670996.454254) vcan0 000001D0#4C424F602D294A32
(1646670996.454393) vcan0 0000014A#1121510A15363413
(1646670996.454439) vcan0 000001A3#0000000804000000
(1646670996.470449) vcan0 000001D0#0F06091349271B5B
(1646670996.472773) vcan0 0000014A#4F4724465C3E371F
(1646670996.473053) vcan0 000001A3#0000000804000000
(1646670996.486517) vcan0 000001D0#1119014036615723
(1646670996.486749) vcan0 0000014A#4D6225403B050612
(1646670996.486847) vcan0 000001A3#0000000804000000
(1646670996.502342) vcan0 000001D0#4442550D404C475D
(1646670996.502592) vcan0 0000014A#33255B3D381B1411
(1646670996.502677) vcan0 000001A3#0000000804000000
(1646670996.521001) vcan0 000001D0#215A26543311193F
(1646670996.521458) vcan0 0000014A#4B1231352647024A
(1646670996.521592) vcan0 000001A3#0000000804000000
(1646670996.535251) vcan0 000001D0#283E0C240D621F31
(1646670996.535469) vcan0 0000014A#441F561C3E493831
(1646670996.535527) vcan0 000001A3#0000000804000000
(1646670996.551324) vcan0 000001D0#3311210D1C180416
(1646670996.553453) vcan0 0000014A#365C153C524A1F3B
(1646670996.553525) vcan0 000001A3#0000000804000000
(1646670996.567302) vcan0 000001D0#2C3F5C0520432B09
(1646670996.567584) vcan0 0000014A#1517575E55390D0A
(1646670996.567705) vcan0 000001A3#0000000804000000
(1646670996.585858) vcan0 000001D0#41220B1F38633D19
(1646670996.586170) vcan0 0000014A#213E60234C635D2B
(1646670996.586306) vcan0 000001A3#0000000804000000
(1646670996.599342) vcan0 000001D0#0B5F132931284649
(1646670996.599592) vcan0 0000014A#241115014E411058
(1646670996.599660) vcan0 000001A3#0000000804000000
(1646670996.615274) vcan0 000001D0#27385F3A181F425B
(1646670996.615411) vcan0 0000014A#06214F591137353D
(1646670996.615542) vcan0 000001A3#0000000804000000
(1646670996.632758) vcan0 000001D0#0106393505562610
(1646670996.633062) vcan0 0000014A#3F2613152F202D2E
(1646670996.633243) vcan0 000001A3#0000000804000000
(1646670996.648537) vcan0 000001D0#360D5F4C2C444947
(1646670996.648836) vcan0 0000014A#38620D5D1B416349
(1646670996.648976) vcan0 000001A3#0000000804000000
(1646670996.666110) vcan0 000001D0#204D1D0E02595C3B
(1646670996.666414) vcan0 0000014A#3D431A341051021F
(1646670996.666663) vcan0 000001A3#0000000804000000
(1646670996.680467) vcan0 000001D0#315A631240565D48
(1646670996.680735) vcan0 0000014A#0D5E4C015D0A452A
(1646670996.680820) vcan0 000001A3#0000000804000000
(1646670996.698185) vcan0 000001D0#44320F27084C3324
(1646670996.698596) vcan0 0000014A#5D250E1C204A4C4E
(1646670996.698730) vcan0 000001A3#0000000804000000
(1646670996.712603) vcan0 000001D0#402D0F3B13330D55
(1646670996.712921) vcan0 0000014A#631D602226552F2E
(1646670996.713090) vcan0 000001A3#0000000804000000
(1646670996.728517) vcan0 000001D0#583645334B19442E
(1646670996.728872) vcan0 0000014A#3A404F5A2E5F1041
(1646670996.729074) vcan0 000001A3#0000000804000000
(1646670996.744482) vcan0 000001D0#5216322D3017021B
(1646670996.744617) vcan0 0000014A#0715082D1B625239
(1646670996.744739) vcan0 000001A3#0000000804000000
(1646670996.760314) vcan0 000001D0#32315E5F2F4E1305
(1646670996.760578) vcan0 0000014A#3650452809112037
(1646670996.760705) vcan0 000001A3#0000000804000000
(1646670996.778031) vcan0 000001D0#354243113C1F4A30
(1646670996.778273) vcan0 0000014A#4234531102126338
(1646670996.778336) vcan0 000001A3#0000000804000000
(1646670996.778462) vcan0 000001A3#4C0F3B130B2A1F12
(1646670996.792344) vcan0 000001D0#57503A512A613C27
(1646670996.792609) vcan0 0000014A#254B464D3501241E
(1646670996.792732) vcan0 000001A3#0000000804000000
(1646670996.810362) vcan0 000001D0#4B474549522E3606
(1646670996.810856) vcan0 0000014A#2653284C0B2E082A
(1646670996.811094) vcan0 000001A3#0000000804000000
(1646670996.824608) vcan0 000001D0#254A5C0255594230
(1646670996.824949) vcan0 0000014A#11590843361A0B5E
(1646670996.825076) vcan0 000001A3#0000000804000000
(1646670996.840940) vcan0 000001D0#0719170B06632452
(1646670996.841330) vcan0 0000014A#541849504248230E
(1646670996.841534) vcan0 000001A3#0000000804000000
(1646670996.856391) vcan0 000001D0#2E4D304C472F055C
(1646670996.856742) vcan0 0000014A#384A544036295843
(1646670996.856862) vcan0 000001A3#0000000804000000
(1646670996.872385) vcan0 000001D0#5711222B36044518
(1646670996.872643) vcan0 0000014A#070343331F191A63
(1646670996.872771) vcan0 000001A3#0000000804000000
(1646670996.890221) vcan0 000001D0#4C1F2D1A31385C63
(1646670996.890530) vcan0 0000014A#511F24392A403D2F
(1646670996.890742) vcan0 000001A3#0000000804000000
(1646670996.904727) vcan0 000001D0#242E5B041C524C40
(1646670996.905085) vcan0 0000014A#4E0D19582817415E
(1646670996.905190) vcan0 000001A3#0000000804000000
(1646670996.920620) vcan0 000001D0#2660620B53105811
(1646670996.923187) vcan0 0000014A#390619133B442D60
(1646670996.923428) vcan0 000001A3#0000000804000000
(1646670996.936533) vcan0 000001D0#02144F54034E4D3E
(1646670996.937018) vcan0 0000014A#4E263A5929100A30
(1646670996.937267) vcan0 000001A3#0000000804000000
(1646670996.952382) vcan0 000001D0#29240B272823561D
(1646670996.952695) vcan0 0000014A#575D311C4B2B2E0F
(1646670996.952869) vcan0 000001A3#0000000804000000
(1646670996.970474) vcan0 000001D0#1B4B1E055A164631
(1646670996.970743) vcan0 0000014A#2E632B3719043A5C
(1646670996.970880) vcan0 000001A3#0000000804000000
(1646670996.984368) vcan0 000001D0#4233061B1224403D
(1646670996.984665) vcan0 0000014A#0D4E3A5658135308
(1646670996.984801) vcan0 000001A3#0000000804000000
(1646670997.002400) vcan0 000001D0#0150533142443961
(1646670997.002719) vcan0 0000014A#13050F2260575610
(1646670997.002846) vcan0 000001A3#0000000804000000
(1646670997.016372) vcan0 000001D0#3E383C293A061A35
(1646670997.016631) vcan0 0000014A#2558463E18112F30
(1646670997.016746) vcan0 000001A3#0000000804000000
(1646670997.034827) vcan0 000001D0#2B5C524F2E3B2436
(1646670997.035083) vcan0 0000014A#26455E122B530522
(1646670997.035281) vcan0 000001A3#0000000804000000
(1646670997.048576) vcan0 000001D0#1B2B094A63542D13
(1646670997.048874) vcan0 0000014A#2B1415315D2C4555
(1646670997.049009) vcan0 000001A3#0000000804000000
(1646670997.064746) vcan0 000001D0#0219240612440E5F
(1646670997.064982) vcan0 0000014A#205A021A2D14571E
(1646670997.065131) vcan0 000001A3#0000000804000000
(1646670997.082124) vcan0 000001D0#435B0E554F071135
(1646670997.082385) vcan0 0000014A#3E042E0F33031962
(1646670997.082533) vcan0 000001A3#0000000804000000
(1646670997.096366) vcan0 000001D0#224D47133C1D482D
(1646670997.096645) vcan0 0000014A#58181C5C46312B16
(1646670997.096766) vcan0 000001A3#0000000804000000
(1646670997.114609) vcan0 000001D0#3C4D24563B22584B
(1646670997.115244) vcan0 0000014A#6361505359024304
(1646670997.115447) vcan0 000001A3#0000000804000000
(1646670997.128354) vcan0 000001D0#36610F2B22343F45
(1646670997.128630) vcan0 0000014A#362F4443494F420B
