(1647134579.090693) vcan0 7A7#38E8204872BA8936
(1647134579.290924) vcan0 520#25D7
(1647134579.491382) vcan0 081#03B56910C3A4CD6D
(1647134579.691628) vcan0 287#39EAAC
(1647134579.891861) vcan0 307#E26CF44706E894
(1647134580.092062) vcan0 5C4#683D193B0CB1
(1647134580.292456) vcan0 3B9#B173E9721D4CD91A
(1647134580.492778) vcan0 2B0#DBDBD00E57EA2864
(1647134580.693205) vcan0 588#C9A4B21A
(1647134580.893461) vcan0 0E6#2EB3F7196701847C
(1647134581.093678) vcan0 4E9#2AA6
(1647134581.293916) vcan0 1A5#F4C2522C
(1647134581.494161) vcan0 34B#B254E6300F49
(1647134581.694594) vcan0 22D#1CFA9D11E6ED297C
(1647134581.894811) vcan0 0A6#033A031756238955
(1647134582.095012) vcan0 658#AD0DB239E0FB234F
(1647134582.295237) vcan0 1F2#89EEDB66D87211
(1647134582.495669) vcan0 666#407495744FB366
(1647134582.696123) vcan0 1E9#BF7A370D8E93B105
(1647134582.896675) vcan0 2CE#3A0003
(1647134583.097130) vcan0 58A#29674476B7C7F414
(1647134583.297562) vcan0 707#9DB51E11AD
(1647134583.498096) vcan0 712#
(1647134583.698599) vcan0 57E#4B
(1647134583.899051) vcan0 328#4952CD42
(1647134584.099476) vcan0 18B#DD342E4C75CBE467
(1647134584.299669) vcan0 0F4#035F966DC28B2F4A
(1647134584.500210) vcan0 550#DCA9A33ADA5AC140
(1647134585.855037) vcan0 15A#4D35037F
(1647134586.055461) vcan0 79B#9B4C0D05209E4D06
(1647134586.255895) vcan0 6AC#5761275C32630739
(1647134586.456136) vcan0 6AB#609ABD3D
(1647134586.656560) vcan0 657#E0
(1647134586.857006) vcan0 40D#2CF3FC0F5B03F149
(1647134587.057267) vcan0 5A5#
(1647134587.257608) vcan0 627#ECA2A87282A7
(1647134587.457857) vcan0 37A#90AA20011583EA3C
(1647134587.658073) vcan0 053#36213843FF264716
(1647134587.858543) vcan0 527#318A4E4FD2DB933C
(1647134588.058740) vcan0 241#08
(1647134588.258924) vcan0 032#F21C67253F8C947A
(1647134588.459082) vcan0 0B5#9A8F85445BC61D6B
(1647134588.659375) vcan0 33E#51C5425D66312337
(1647134588.859545) vcan0 015#E8D8B32E8F1BFD07
(1647134589.059745) vcan0 077#A49EE744CA483430
(1647134589.259924) vcan0 2A4#C96F7B46CB8FE84C
(1647134589.460161) vcan0 267#9D6B7C09A87C243D
(1647134589.660363) vcan0 68B#40FD215FBDBE
(1647134589.860635) vcan0 28F#FC4A4C
(1647134590.060858) vcan0 251#9FD11068905D
(1647134590.260985) vcan0 535#
(1647134590.461175) vcan0 72E#D908FF7EA53FD656
(1647134590.661368) vcan0 356#70880A07FA651737
(1647134590.861830) vcan0 758#C5F5FF03C0A98573
(1647134591.062281) vcan0 234#6826AA
(1647134591.262492) vcan0 709#7DCFDD139851DE31
(1647134591.462665) vcan0 5DC#DC5CD12E2D68424E
(1647134591.662784) vcan0 510#BDC5AB3945EA3D43
(1647134591.862916) vcan0 56C#90D73F
(1647134592.063299) vcan0 491#40044B48E8A78D2E
(1647134592.263478) vcan0 7E7#
(1647134592.463861) vcan0 4E9#0099B13C1D772B00
(1647134592.664292) vcan0 50B#DD875106146CF140
(1647134592.864479) vcan0 311#ACBDCF72ED207D11
(1647134593.064686) vcan0 1D3#1B89BF5FE366551F
(1647134593.264881) vcan0 104#29519362710EB914
(1647134593.465094) vcan0 38C#0BD32D061D601C23
(1647134593.665367) vcan0 122#0508AA510A913753
(1647134593.865541) vcan0 3FB#4A80631CE5E8A93A
(1647134594.065739) vcan0 190#0260D53A9B7E1518
(1647134594.265970) vcan0 0B2#AFEA0659C4BB9843
(1647134594.466378) vcan0 739#B1DC15550DB1AF11
(1647134594.466980) vcan0 00000739#0D261A2254405202
(1647134594.666564) vcan0 2E3#F0170531E80BFB25
(1647134594.866983) vcan0 4A5#591AB43A3158E443
(1647134595.067525) vcan0 1D2#4EB80067
(1647134595.267973) vcan0 4B0#FF2BB559
(1647134595.468431) vcan0 63C#9011D367CCEFED10
(1647134595.668640) vcan0 593#676E03
(1647134595.868801) vcan0 172#095A3759AC98
(1647134596.069191) vcan0 171#B949D55054C4583B
(1647134596.269626) vcan0 487#3CD053612C516331
(1647134596.469821) vcan0 2C3#5DA9477595
(1647134596.670205) vcan0 7FA#8AF75B4CAA9C446C
(1647134596.870770) vcan0 200#55C56D193CF8EC04
(1647134597.070894) vcan0 7D2#08E8DA156595
(1647134597.271134) vcan0 079#AB33F600EBA1B807
(1647134597.471329) vcan0 785#973ADE46
(1647134597.671612) vcan0 46F#
(1647134597.871849) vcan0 5FA#23B2001DBDB000
(1647134598.072285) vcan0 01C#52
(1647134598.272464) vcan0 52D#C0A4AC102DDF8303
(1647134598.472842) vcan0 066#69D7700839F8
(1647134598.673419) vcan0 0FC#9E
(1647134598.873601) vcan0 5E0#602BFD5665C5121E
(1647134599.073772) vcan0 6FE#5B76DC2C6D136C52
(1647134599.273986) vcan0 248#6474093E42
(1647134599.474153) vcan0 12C#FF801D7E4961F369
(1647134599.674658) vcan0 209#5F69
(1647134599.874866) vcan0 32F#
(1647134600.075028) vcan0 036#CEB3F91E32B97D74
(1647134600.275481) vcan0 53D#A742C2431DCB4D63
(1647134600.475940) vcan0 2B6#82906001B4517C
(1647134600.676121) vcan0 3FF#2265E81948BE296E
(1647134600.876312) vcan0 282#8A8E463DAF23
(1647134601.076530) vcan0 00E#F884A43117824E20
(1647134601.276708) vcan0 5DC#4DC1317C0B3198
(1647134601.476938) vcan0 477#
(1647134601.677076) vcan0 57C#DF2DA81CB98A9449
(1647134601.877292) vcan0 1DC#D655E22C92E4
(1647134602.078101) vcan0 68E#4736E46F8DB2C433
